# vsim -assertdebug -coverage -vopt Bridge_top -c -do "coverage save -onexit -directive -cvg -codeAll err.ucdb;run -all" "+UVM_TESTNAME=callback_test" 
# Start time: 23:12:07 on Dec 20,2023
# ** Note: (vsim-8009) Loading existing optimized design _opt2
# 
# //  Questa Sim-64
# //  Version 10.4e win64 Apr  9 2016
# //
# //  Copyright 1991-2016 Mentor Graphics Corporation
# //  All Rights Reserved.
# //
# //  THIS WORK CONTAINS TRADE SECRET AND PROPRIETARY INFORMATION
# //  WHICH IS THE PROPERTY OF MENTOR GRAPHICS CORPORATION OR ITS
# //  LICENSORS AND IS SUBJECT TO LICENSE TERMS.
# //  THIS DOCUMENT CONTAINS TRADE SECRETS AND COMMERCIAL OR FINANCIAL
# //  INFORMATION THAT ARE PRIVILEGED, CONFIDENTIAL, AND EXEMPT FROM
# //  DISCLOSURE UNDER THE FREEDOM OF INFORMATION ACT, 5 U.S.C. SECTION 552.
# //  FURTHERMORE, THIS INFORMATION IS PROHIBITED FROM DISCLOSURE UNDER
# //  THE TRADE SECRETS ACT, 18 U.S.C. SECTION 1905.
# //
# Loading sv_std.std
# Loading mtiUvm.uvm_pkg
# Loading work.Bridge_pkg(fast)
# Loading work.Bridge_top(fast)
# Loading work.Bridge_inf(fast__1)
# Loading work.dsgn(fast)
# Loading work.apb_slave(fast)
# Loading work.i2c_slave(fast)
# Loading work.Mux_2_1(fast)
# Loading work.Demux_1_2(fast)
# Loading work.Bridge_assertion(fast)
# Loading mtiUvm.questa_uvm_pkg(fast)
# Loading work.Bridge_inf(fast)
# ** Warning: (vsim-3015) ../TOP/Bridge_top.sv(24): [PCDPC] - Port size (1) does not match connection size (8) for port 'paddr'. The port definition is at: ../ENV/Bridge_assertion.sv(11).
#    Time: 0 ns  Iteration: 0  Instance: /Bridge_top/DUT/AST File: ../ENV/Bridge_assertion.sv
# ** Warning: (vsim-3015) ../TOP/Bridge_top.sv(24): [PCDPC] - Port size (1) does not match connection size (8) for port 'pwdata_in'. The port definition is at: ../ENV/Bridge_assertion.sv(14).
#    Time: 0 ns  Iteration: 0  Instance: /Bridge_top/DUT/AST File: ../ENV/Bridge_assertion.sv
# ** Warning: (vsim-3015) ../TOP/Bridge_top.sv(24): [PCDPC] - Port size (1) does not match connection size (8) for port 'prdata_out'. The port definition is at: ../ENV/Bridge_assertion.sv(15).
#    Time: 0 ns  Iteration: 0  Instance: /Bridge_top/DUT/AST File: ../ENV/Bridge_assertion.sv
# Loading C:/questasim64_10.4e/uvm-1.1d\win64\uvm_dpi.dll
# coverage save -onexit -directive -cvg -codeAll err.ucdb
# run -all
# ----------------------------------------------------------------
# UVM-1.1d
# (C) 2007-2013 Mentor Graphics Corporation
# (C) 2007-2013 Cadence Design Systems, Inc.
# (C) 2006-2013 Synopsys, Inc.
# (C) 2011-2013 Cypress Semiconductor Corp.
# ----------------------------------------------------------------
# 
#   ***********       IMPORTANT RELEASE NOTES         ************
# 
#   You are using a version of the UVM library that has been compiled
#   with `UVM_NO_DEPRECATED undefined.
#   See http://www.eda.org/svdb/view.php?id=3313 for more details.
# 
#   You are using a version of the UVM library that has been compiled
#   with `UVM_OBJECT_MUST_HAVE_CONSTRUCTOR undefined.
#   See http://www.eda.org/svdb/view.php?id=3770 for more details.
# 
#       (Specify +UVM_NO_RELNOTES to turn off this notice)
# 
# UVM_INFO verilog_src/questa_uvm_pkg-1.2/src/questa_uvm_pkg.sv(215) @ 0: reporter [Questa UVM] QUESTA_UVM-1.2.3
# UVM_INFO verilog_src/questa_uvm_pkg-1.2/src/questa_uvm_pkg.sv(217) @ 0: reporter [Questa UVM]  questa_uvm::init(+struct)
# UVM_INFO @ 0: reporter [RNTST] Running test callback_test...
# UVM_INFO ../ENV/Bridge_assertion.sv(71) @ 8: reporter [ASR VAL_SDA PASS] VALID SDA CHECK PASSED
# UVM_INFO ../ENV/APB/APB_monitor.sv(34) @ 10: uvm_test_top.env_h.apb_agnt_h.mon_h [APB MON] APB MONITOR is monitoring
# ------------------------------------
# Name          Type       Size  Value
# ------------------------------------
# APB_trans     APB_trans  -     @1025
#   psel        integral   1     'h0  
#   penable     integral   1     'h0  
#   pwrite      integral   1     'h0  
#   preset      integral   1     'h0  
#   paddr       integral   8     'd0  
#   pwdata_in   integral   8     'd0  
#   prdata_out  integral   8     'd0  
#   pwdata_out  integral   8     'd0  
#   pready      integral   1     'h0  
# ------------------------------------
# UVM_INFO ../ENV/Bridge_assertion.sv(63) @ 10: reporter [ASR RST PASS] PRESET ASSERTION CHECK PASSED
# INITIAL RESET DONE SUCCESSFULLY
# UVM_INFO ../ENV/APB/APB_driver.sv(17) @ 20: uvm_test_top.env_h.apb_agnt_h.drv_h [APB DRV] _______________APB DRIVER IS DRIVING
# -------------------------------------------------------------------------------------------
# Name                           Type       Size  Value                                      
# -------------------------------------------------------------------------------------------
# trans_h                        APB_trans  -     @1034                                      
#   psel                         integral   1     'h1                                        
#   penable                      integral   1     'h1                                        
#   pwrite                       integral   1     'h1                                        
#   preset                       integral   1     'h1                                        
#   paddr                        integral   8     255                                        
#   pwdata_in                    integral   8     'd47                                       
#   prdata_out                   integral   8     'd0                                        
#   pwdata_out                   integral   8     'd0                                        
#   pready                       integral   1     'h0                                        
#   begin_time                   time       64    20                                         
#   depth                        int        32    'd3                                        
#   parent sequence (name)       string     9     apb_seq_h                                  
#   parent sequence (full name)  string     43    uvm_test_top.env_h.vseqr_h.vseq_h.apb_seq_h
#   sequencer                    string     36    uvm_test_top.env_h.apb_agnt_h.seqr_h       
# -------------------------------------------------------------------------------------------
# UVM_INFO ../ENV/Bridge_assertion.sv(71) @ 28: reporter [ASR VAL_SDA PASS] VALID SDA CHECK PASSED
# UVM_INFO ../ENV/APB/APB_monitor.sv(34) @ 30: uvm_test_top.env_h.apb_agnt_h.mon_h [APB MON] APB MONITOR is monitoring
# ------------------------------------
# Name          Type       Size  Value
# ------------------------------------
# APB_trans     APB_trans  -     @1110
#   psel        integral   1     'h0  
#   penable     integral   1     'h0  
#   pwrite      integral   1     'h0  
#   preset      integral   1     'h1  
#   paddr       integral   8     'd0  
#   pwdata_in   integral   8     'd0  
#   prdata_out  integral   8     'd0  
#   pwdata_out  integral   8     'd0  
#   pready      integral   1     'h0  
# ------------------------------------
# UVM_INFO ../ENV/Bridge_assertion.sv(79) @ 30: reporter [ASR VAL_RDY PASS] VALID PREADY CHECK PASSED
# UVM_INFO ../ENV/Bridge_assertion.sv(71) @ 48: reporter [ASR VAL_SDA PASS] VALID SDA CHECK PASSED
# UVM_INFO ../ENV/APB/APB_monitor.sv(34) @ 50: uvm_test_top.env_h.apb_agnt_h.mon_h [APB MON] APB MONITOR is monitoring
# ------------------------------------
# Name          Type       Size  Value
# ------------------------------------
# APB_trans     APB_trans  -     @1114
#   psel        integral   1     'h1  
#   penable     integral   1     'h0  
#   pwrite      integral   1     'h1  
#   preset      integral   1     'h1  
#   paddr       integral   8     255  
#   pwdata_in   integral   8     'd47 
#   prdata_out  integral   8     'd0  
#   pwdata_out  integral   8     'd0  
#   pready      integral   1     'h0  
# ------------------------------------
# UVM_INFO ../ENV/Bridge_assertion.sv(67) @ 50: reporter [ASR VAL_PSEL PASS] VALID PSEL CHECK PASSED
# UVM_INFO ../ENV/Bridge_assertion.sv(79) @ 50: reporter [ASR VAL_RDY PASS] VALID PREADY CHECK PASSED
# UVM_INFO ../ENV/Bridge_assertion.sv(75) @ 50: reporter [ASR VAL_ADDR PASS] VALID PADDR CHECK PASSED
# UVM_INFO ../ENV/Bridge_assertion.sv(71) @ 68: reporter [ASR VAL_SDA PASS] VALID SDA CHECK PASSED
# UVM_INFO ../ENV/APB/APB_monitor.sv(34) @ 70: uvm_test_top.env_h.apb_agnt_h.mon_h [APB MON] APB MONITOR is monitoring
# ------------------------------------
# Name          Type       Size  Value
# ------------------------------------
# APB_trans     APB_trans  -     @1118
#   psel        integral   1     'h1  
#   penable     integral   1     'h1  
#   pwrite      integral   1     'h1  
#   preset      integral   1     'h1  
#   paddr       integral   8     255  
#   pwdata_in   integral   8     'd47 
#   prdata_out  integral   8     'd0  
#   pwdata_out  integral   8     'd0  
#   pready      integral   1     'h0  
# ------------------------------------
# UVM_INFO ../ENV/Bridge_assertion.sv(67) @ 70: reporter [ASR VAL_PSEL PASS] VALID PSEL CHECK PASSED
# UVM_INFO ../ENV/Bridge_assertion.sv(79) @ 70: reporter [ASR VAL_RDY PASS] VALID PREADY CHECK PASSED
# UVM_INFO ../ENV/Bridge_assertion.sv(75) @ 70: reporter [ASR VAL_ADDR PASS] VALID PADDR CHECK PASSED
# UVM_INFO ../ENV/Bridge_assertion.sv(71) @ 88: reporter [ASR VAL_SDA PASS] VALID SDA CHECK PASSED
# UVM_INFO ../ENV/APB/APB_monitor.sv(34) @ 90: uvm_test_top.env_h.apb_agnt_h.mon_h [APB MON] APB MONITOR is monitoring
# ------------------------------------
# Name          Type       Size  Value
# ------------------------------------
# APB_trans     APB_trans  -     @1122
#   psel        integral   1     'h1  
#   penable     integral   1     'h1  
#   pwrite      integral   1     'h1  
#   preset      integral   1     'h1  
#   paddr       integral   8     255  
#   pwdata_in   integral   8     'd47 
#   prdata_out  integral   8     'd0  
#   pwdata_out  integral   8     'd0  
#   pready      integral   1     'h0  
# ------------------------------------
# UVM_INFO ../ENV/Bridge_assertion.sv(67) @ 90: reporter [ASR VAL_PSEL PASS] VALID PSEL CHECK PASSED
# UVM_INFO ../ENV/Bridge_assertion.sv(79) @ 90: reporter [ASR VAL_RDY PASS] VALID PREADY CHECK PASSED
# UVM_INFO ../ENV/Bridge_assertion.sv(75) @ 90: reporter [ASR VAL_ADDR PASS] VALID PADDR CHECK PASSED
# UVM_INFO ../ENV/Bridge_assertion.sv(71) @ 108: reporter [ASR VAL_SDA PASS] VALID SDA CHECK PASSED
# UVM_INFO ../ENV/APB/APB_monitor.sv(34) @ 110: uvm_test_top.env_h.apb_agnt_h.mon_h [APB MON] APB MONITOR is monitoring
# ------------------------------------
# Name          Type       Size  Value
# ------------------------------------
# APB_trans     APB_trans  -     @1126
#   psel        integral   1     'h1  
#   penable     integral   1     'h1  
#   pwrite      integral   1     'h1  
#   preset      integral   1     'h1  
#   paddr       integral   8     255  
#   pwdata_in   integral   8     'd47 
#   prdata_out  integral   8     'd0  
#   pwdata_out  integral   8     'd0  
#   pready      integral   1     'h0  
# ------------------------------------
# UVM_INFO ../ENV/Bridge_assertion.sv(67) @ 110: reporter [ASR VAL_PSEL PASS] VALID PSEL CHECK PASSED
# UVM_INFO ../ENV/Bridge_assertion.sv(79) @ 110: reporter [ASR VAL_RDY PASS] VALID PREADY CHECK PASSED
# UVM_INFO ../ENV/Bridge_assertion.sv(75) @ 110: reporter [ASR VAL_ADDR PASS] VALID PADDR CHECK PASSED
# UVM_INFO ../ENV/Bridge_assertion.sv(71) @ 128: reporter [ASR VAL_SDA PASS] VALID SDA CHECK PASSED
# UVM_INFO ../ENV/APB/APB_monitor.sv(34) @ 130: uvm_test_top.env_h.apb_agnt_h.mon_h [APB MON] APB MONITOR is monitoring
# ------------------------------------
# Name          Type       Size  Value
# ------------------------------------
# APB_trans     APB_trans  -     @1130
#   psel        integral   1     'h1  
#   penable     integral   1     'h1  
#   pwrite      integral   1     'h1  
#   preset      integral   1     'h1  
#   paddr       integral   8     255  
#   pwdata_in   integral   8     'd47 
#   prdata_out  integral   8     'd0  
#   pwdata_out  integral   8     'd0  
#   pready      integral   1     'h0  
# ------------------------------------
# UVM_INFO ../ENV/Bridge_assertion.sv(67) @ 130: reporter [ASR VAL_PSEL PASS] VALID PSEL CHECK PASSED
# UVM_INFO ../ENV/Bridge_assertion.sv(79) @ 130: reporter [ASR VAL_RDY PASS] VALID PREADY CHECK PASSED
# UVM_INFO ../ENV/Bridge_assertion.sv(75) @ 130: reporter [ASR VAL_ADDR PASS] VALID PADDR CHECK PASSED
# UVM_INFO ../ENV/Bridge_assertion.sv(71) @ 148: reporter [ASR VAL_SDA PASS] VALID SDA CHECK PASSED
# UVM_INFO ../ENV/APB/APB_monitor.sv(34) @ 150: uvm_test_top.env_h.apb_agnt_h.mon_h [APB MON] APB MONITOR is monitoring
# ------------------------------------
# Name          Type       Size  Value
# ------------------------------------
# APB_trans     APB_trans  -     @1134
#   psel        integral   1     'h1  
#   penable     integral   1     'h1  
#   pwrite      integral   1     'h1  
#   preset      integral   1     'h1  
#   paddr       integral   8     255  
#   pwdata_in   integral   8     'd47 
#   prdata_out  integral   8     'd0  
#   pwdata_out  integral   8     'd0  
#   pready      integral   1     'h0  
# ------------------------------------
# UVM_INFO ../ENV/Bridge_assertion.sv(67) @ 150: reporter [ASR VAL_PSEL PASS] VALID PSEL CHECK PASSED
# UVM_INFO ../ENV/Bridge_assertion.sv(79) @ 150: reporter [ASR VAL_RDY PASS] VALID PREADY CHECK PASSED
# UVM_INFO ../ENV/Bridge_assertion.sv(75) @ 150: reporter [ASR VAL_ADDR PASS] VALID PADDR CHECK PASSED
# UVM_INFO ../ENV/Bridge_assertion.sv(71) @ 168: reporter [ASR VAL_SDA PASS] VALID SDA CHECK PASSED
# UVM_INFO ../ENV/APB/APB_monitor.sv(34) @ 170: uvm_test_top.env_h.apb_agnt_h.mon_h [APB MON] APB MONITOR is monitoring
# ------------------------------------
# Name          Type       Size  Value
# ------------------------------------
# APB_trans     APB_trans  -     @1138
#   psel        integral   1     'h1  
#   penable     integral   1     'h1  
#   pwrite      integral   1     'h1  
#   preset      integral   1     'h1  
#   paddr       integral   8     255  
#   pwdata_in   integral   8     'd47 
#   prdata_out  integral   8     'd0  
#   pwdata_out  integral   8     'd0  
#   pready      integral   1     'h0  
# ------------------------------------
# UVM_INFO ../ENV/Bridge_assertion.sv(67) @ 170: reporter [ASR VAL_PSEL PASS] VALID PSEL CHECK PASSED
# UVM_INFO ../ENV/Bridge_assertion.sv(79) @ 170: reporter [ASR VAL_RDY PASS] VALID PREADY CHECK PASSED
# UVM_INFO ../ENV/Bridge_assertion.sv(75) @ 170: reporter [ASR VAL_ADDR PASS] VALID PADDR CHECK PASSED
# UVM_INFO ../ENV/Bridge_assertion.sv(71) @ 188: reporter [ASR VAL_SDA PASS] VALID SDA CHECK PASSED
# UVM_INFO ../ENV/APB/APB_monitor.sv(34) @ 190: uvm_test_top.env_h.apb_agnt_h.mon_h [APB MON] APB MONITOR is monitoring
# ------------------------------------
# Name          Type       Size  Value
# ------------------------------------
# APB_trans     APB_trans  -     @1142
#   psel        integral   1     'h1  
#   penable     integral   1     'h1  
#   pwrite      integral   1     'h1  
#   preset      integral   1     'h1  
#   paddr       integral   8     255  
#   pwdata_in   integral   8     'd47 
#   prdata_out  integral   8     'd0  
#   pwdata_out  integral   8     'd0  
#   pready      integral   1     'h1  
# ------------------------------------
# UVM_INFO ../ENV/Bridge_sb.sv(96) @ 190: uvm_test_top.env_h.scbd_h [APB WRITE METHOD] TX APB REC in SB : 47
# UVM_INFO ../ENV/Bridge_sb.sv(101) @ 190: uvm_test_top.env_h.scbd_h [APB WRITE CYCLE] \\\\\\\\\\\\\MEMORY : 47 0 0 0 0 0 0 0			WR_PT=1	RD_PT=0
# UVM_INFO ../ENV/APB/APB_driver.sv(17) @ 190: uvm_test_top.env_h.apb_agnt_h.drv_h [APB DRV] _______________APB DRIVER IS DRIVING
# -------------------------------------------------------------------------------------------
# Name                           Type       Size  Value                                      
# -------------------------------------------------------------------------------------------
# trans_h                        APB_trans  -     @1155                                      
#   psel                         integral   1     'h1                                        
#   penable                      integral   1     'h1                                        
#   pwrite                       integral   1     'h1                                        
#   preset                       integral   1     'h1                                        
#   paddr                        integral   8     255                                        
#   pwdata_in                    integral   8     'd114                                      
#   prdata_out                   integral   8     'd0                                        
#   pwdata_out                   integral   8     'd0                                        
#   pready                       integral   1     'h0                                        
#   begin_time                   time       64    190                                        
#   depth                        int        32    'd3                                        
#   parent sequence (name)       string     9     apb_seq_h                                  
#   parent sequence (full name)  string     43    uvm_test_top.env_h.vseqr_h.vseq_h.apb_seq_h
#   sequencer                    string     36    uvm_test_top.env_h.apb_agnt_h.seqr_h       
# -------------------------------------------------------------------------------------------
# UVM_INFO ../ENV/Bridge_assertion.sv(67) @ 190: reporter [ASR VAL_PSEL PASS] VALID PSEL CHECK PASSED
# UVM_INFO ../ENV/Bridge_assertion.sv(79) @ 190: reporter [ASR VAL_RDY PASS] VALID PREADY CHECK PASSED
# UVM_INFO ../ENV/Bridge_assertion.sv(75) @ 190: reporter [ASR VAL_ADDR PASS] VALID PADDR CHECK PASSED
# UVM_INFO ../ENV/Bridge_assertion.sv(71) @ 208: reporter [ASR VAL_SDA PASS] VALID SDA CHECK PASSED
# UVM_INFO ../ENV/APB/APB_monitor.sv(34) @ 210: uvm_test_top.env_h.apb_agnt_h.mon_h [APB MON] APB MONITOR is monitoring
# ------------------------------------
# Name          Type       Size  Value
# ------------------------------------
# APB_trans     APB_trans  -     @1146
#   psel        integral   1     'h1  
#   penable     integral   1     'h0  
#   pwrite      integral   1     'h1  
#   preset      integral   1     'h1  
#   paddr       integral   8     255  
#   pwdata_in   integral   8     'd47 
#   prdata_out  integral   8     'd0  
#   pwdata_out  integral   8     'd0  
#   pready      integral   1     'h1  
# ------------------------------------
# UVM_INFO ../ENV/Bridge_assertion.sv(59) @ 210: reporter [ASR ENB PASS] PENABLE DEASSERTION CHECK PASSED
# UVM_INFO ../ENV/Bridge_assertion.sv(67) @ 210: reporter [ASR VAL_PSEL PASS] VALID PSEL CHECK PASSED
# UVM_INFO ../ENV/Bridge_assertion.sv(79) @ 210: reporter [ASR VAL_RDY PASS] VALID PREADY CHECK PASSED
# UVM_INFO ../ENV/Bridge_assertion.sv(75) @ 210: reporter [ASR VAL_ADDR PASS] VALID PADDR CHECK PASSED
# UVM_INFO ../ENV/Bridge_assertion.sv(71) @ 228: reporter [ASR VAL_SDA PASS] VALID SDA CHECK PASSED
# UVM_INFO ../ENV/APB/APB_monitor.sv(34) @ 230: uvm_test_top.env_h.apb_agnt_h.mon_h [APB MON] APB MONITOR is monitoring
# ------------------------------------
# Name          Type       Size  Value
# ------------------------------------
# APB_trans     APB_trans  -     @1159
#   psel        integral   1     'h1  
#   penable     integral   1     'h0  
#   pwrite      integral   1     'h1  
#   preset      integral   1     'h1  
#   paddr       integral   8     255  
#   pwdata_in   integral   8     'd114
#   prdata_out  integral   8     'd0  
#   pwdata_out  integral   8     'd0  
#   pready      integral   1     'h0  
# ------------------------------------
# UVM_INFO ../ENV/Bridge_assertion.sv(67) @ 230: reporter [ASR VAL_PSEL PASS] VALID PSEL CHECK PASSED
# UVM_INFO ../ENV/Bridge_assertion.sv(79) @ 230: reporter [ASR VAL_RDY PASS] VALID PREADY CHECK PASSED
# UVM_INFO ../ENV/Bridge_assertion.sv(75) @ 230: reporter [ASR VAL_ADDR PASS] VALID PADDR CHECK PASSED
# UVM_INFO ../ENV/Bridge_assertion.sv(71) @ 248: reporter [ASR VAL_SDA PASS] VALID SDA CHECK PASSED
# UVM_INFO ../ENV/APB/APB_monitor.sv(34) @ 250: uvm_test_top.env_h.apb_agnt_h.mon_h [APB MON] APB MONITOR is monitoring
# ------------------------------------
# Name          Type       Size  Value
# ------------------------------------
# APB_trans     APB_trans  -     @1163
#   psel        integral   1     'h1  
#   penable     integral   1     'h1  
#   pwrite      integral   1     'h1  
#   preset      integral   1     'h1  
#   paddr       integral   8     255  
#   pwdata_in   integral   8     'd114
#   prdata_out  integral   8     'd0  
#   pwdata_out  integral   8     'd0  
#   pready      integral   1     'h0  
# ------------------------------------
# UVM_INFO ../ENV/Bridge_assertion.sv(67) @ 250: reporter [ASR VAL_PSEL PASS] VALID PSEL CHECK PASSED
# UVM_INFO ../ENV/Bridge_assertion.sv(79) @ 250: reporter [ASR VAL_RDY PASS] VALID PREADY CHECK PASSED
# UVM_INFO ../ENV/Bridge_assertion.sv(75) @ 250: reporter [ASR VAL_ADDR PASS] VALID PADDR CHECK PASSED
# UVM_INFO ../ENV/Bridge_assertion.sv(71) @ 268: reporter [ASR VAL_SDA PASS] VALID SDA CHECK PASSED
# UVM_INFO ../ENV/APB/APB_monitor.sv(34) @ 270: uvm_test_top.env_h.apb_agnt_h.mon_h [APB MON] APB MONITOR is monitoring
# ------------------------------------
# Name          Type       Size  Value
# ------------------------------------
# APB_trans     APB_trans  -     @1167
#   psel        integral   1     'h1  
#   penable     integral   1     'h1  
#   pwrite      integral   1     'h1  
#   preset      integral   1     'h1  
#   paddr       integral   8     255  
#   pwdata_in   integral   8     'd114
#   prdata_out  integral   8     'd0  
#   pwdata_out  integral   8     'd0  
#   pready      integral   1     'h0  
# ------------------------------------
# UVM_INFO ../ENV/Bridge_assertion.sv(67) @ 270: reporter [ASR VAL_PSEL PASS] VALID PSEL CHECK PASSED
# UVM_INFO ../ENV/Bridge_assertion.sv(79) @ 270: reporter [ASR VAL_RDY PASS] VALID PREADY CHECK PASSED
# UVM_INFO ../ENV/Bridge_assertion.sv(75) @ 270: reporter [ASR VAL_ADDR PASS] VALID PADDR CHECK PASSED
# UVM_INFO ../ENV/Bridge_assertion.sv(71) @ 288: reporter [ASR VAL_SDA PASS] VALID SDA CHECK PASSED
# UVM_INFO ../ENV/APB/APB_monitor.sv(34) @ 290: uvm_test_top.env_h.apb_agnt_h.mon_h [APB MON] APB MONITOR is monitoring
# ------------------------------------
# Name          Type       Size  Value
# ------------------------------------
# APB_trans     APB_trans  -     @1171
#   psel        integral   1     'h1  
#   penable     integral   1     'h1  
#   pwrite      integral   1     'h1  
#   preset      integral   1     'h1  
#   paddr       integral   8     255  
#   pwdata_in   integral   8     'd114
#   prdata_out  integral   8     'd0  
#   pwdata_out  integral   8     'd0  
#   pready      integral   1     'h0  
# ------------------------------------
# UVM_INFO ../ENV/Bridge_assertion.sv(67) @ 290: reporter [ASR VAL_PSEL PASS] VALID PSEL CHECK PASSED
# UVM_INFO ../ENV/Bridge_assertion.sv(79) @ 290: reporter [ASR VAL_RDY PASS] VALID PREADY CHECK PASSED
# UVM_INFO ../ENV/Bridge_assertion.sv(75) @ 290: reporter [ASR VAL_ADDR PASS] VALID PADDR CHECK PASSED
# UVM_INFO ../ENV/Bridge_assertion.sv(71) @ 308: reporter [ASR VAL_SDA PASS] VALID SDA CHECK PASSED
# UVM_INFO ../ENV/APB/APB_monitor.sv(34) @ 310: uvm_test_top.env_h.apb_agnt_h.mon_h [APB MON] APB MONITOR is monitoring
# ------------------------------------
# Name          Type       Size  Value
# ------------------------------------
# APB_trans     APB_trans  -     @1175
#   psel        integral   1     'h1  
#   penable     integral   1     'h1  
#   pwrite      integral   1     'h1  
#   preset      integral   1     'h1  
#   paddr       integral   8     255  
#   pwdata_in   integral   8     'd114
#   prdata_out  integral   8     'd0  
#   pwdata_out  integral   8     'd0  
#   pready      integral   1     'h0  
# ------------------------------------
# UVM_INFO ../ENV/Bridge_assertion.sv(67) @ 310: reporter [ASR VAL_PSEL PASS] VALID PSEL CHECK PASSED
# UVM_INFO ../ENV/Bridge_assertion.sv(79) @ 310: reporter [ASR VAL_RDY PASS] VALID PREADY CHECK PASSED
# UVM_INFO ../ENV/Bridge_assertion.sv(75) @ 310: reporter [ASR VAL_ADDR PASS] VALID PADDR CHECK PASSED
# UVM_INFO ../ENV/Bridge_assertion.sv(71) @ 328: reporter [ASR VAL_SDA PASS] VALID SDA CHECK PASSED
# UVM_INFO ../ENV/APB/APB_monitor.sv(34) @ 330: uvm_test_top.env_h.apb_agnt_h.mon_h [APB MON] APB MONITOR is monitoring
# ------------------------------------
# Name          Type       Size  Value
# ------------------------------------
# APB_trans     APB_trans  -     @1179
#   psel        integral   1     'h1  
#   penable     integral   1     'h1  
#   pwrite      integral   1     'h1  
#   preset      integral   1     'h1  
#   paddr       integral   8     255  
#   pwdata_in   integral   8     'd114
#   prdata_out  integral   8     'd0  
#   pwdata_out  integral   8     'd0  
#   pready      integral   1     'h1  
# ------------------------------------
# UVM_INFO ../ENV/Bridge_sb.sv(96) @ 330: uvm_test_top.env_h.scbd_h [APB WRITE METHOD] TX APB REC in SB : 114
# UVM_INFO ../ENV/Bridge_sb.sv(101) @ 330: uvm_test_top.env_h.scbd_h [APB WRITE CYCLE] \\\\\\\\\\\\\MEMORY : 47 114 0 0 0 0 0 0			WR_PT=2	RD_PT=0
# UVM_INFO ../ENV/APB/APB_driver.sv(17) @ 330: uvm_test_top.env_h.apb_agnt_h.drv_h [APB DRV] _______________APB DRIVER IS DRIVING
# -------------------------------------------------------------------------------------------
# Name                           Type       Size  Value                                      
# -------------------------------------------------------------------------------------------
# trans_h                        APB_trans  -     @1191                                      
#   psel                         integral   1     'h1                                        
#   penable                      integral   1     'h1                                        
#   pwrite                       integral   1     'h1                                        
#   preset                       integral   1     'h1                                        
#   paddr                        integral   8     255                                        
#   pwdata_in                    integral   8     152                                        
#   prdata_out                   integral   8     'd0                                        
#   pwdata_out                   integral   8     'd0                                        
#   pready                       integral   1     'h0                                        
#   begin_time                   time       64    330                                        
#   depth                        int        32    'd3                                        
#   parent sequence (name)       string     9     apb_seq_h                                  
#   parent sequence (full name)  string     43    uvm_test_top.env_h.vseqr_h.vseq_h.apb_seq_h
#   sequencer                    string     36    uvm_test_top.env_h.apb_agnt_h.seqr_h       
# -------------------------------------------------------------------------------------------
# UVM_INFO ../ENV/Bridge_assertion.sv(67) @ 330: reporter [ASR VAL_PSEL PASS] VALID PSEL CHECK PASSED
# UVM_INFO ../ENV/Bridge_assertion.sv(79) @ 330: reporter [ASR VAL_RDY PASS] VALID PREADY CHECK PASSED
# UVM_INFO ../ENV/Bridge_assertion.sv(75) @ 330: reporter [ASR VAL_ADDR PASS] VALID PADDR CHECK PASSED
# UVM_INFO ../ENV/Bridge_assertion.sv(71) @ 348: reporter [ASR VAL_SDA PASS] VALID SDA CHECK PASSED
# UVM_INFO ../ENV/APB/APB_monitor.sv(34) @ 350: uvm_test_top.env_h.apb_agnt_h.mon_h [APB MON] APB MONITOR is monitoring
# ------------------------------------
# Name          Type       Size  Value
# ------------------------------------
# APB_trans     APB_trans  -     @1183
#   psel        integral   1     'h1  
#   penable     integral   1     'h0  
#   pwrite      integral   1     'h1  
#   preset      integral   1     'h1  
#   paddr       integral   8     255  
#   pwdata_in   integral   8     'd114
#   prdata_out  integral   8     'd0  
#   pwdata_out  integral   8     'd0  
#   pready      integral   1     'h1  
# ------------------------------------
# UVM_INFO ../ENV/Bridge_assertion.sv(67) @ 350: reporter [ASR VAL_PSEL PASS] VALID PSEL CHECK PASSED
# UVM_INFO ../ENV/Bridge_assertion.sv(79) @ 350: reporter [ASR VAL_RDY PASS] VALID PREADY CHECK PASSED
# UVM_INFO ../ENV/Bridge_assertion.sv(75) @ 350: reporter [ASR VAL_ADDR PASS] VALID PADDR CHECK PASSED
# UVM_INFO ../ENV/Bridge_assertion.sv(71) @ 368: reporter [ASR VAL_SDA PASS] VALID SDA CHECK PASSED
# UVM_INFO ../ENV/APB/APB_monitor.sv(34) @ 370: uvm_test_top.env_h.apb_agnt_h.mon_h [APB MON] APB MONITOR is monitoring
# ------------------------------------
# Name          Type       Size  Value
# ------------------------------------
# APB_trans     APB_trans  -     @1195
#   psel        integral   1     'h1  
#   penable     integral   1     'h0  
#   pwrite      integral   1     'h1  
#   preset      integral   1     'h1  
#   paddr       integral   8     255  
#   pwdata_in   integral   8     152  
#   prdata_out  integral   8     'd0  
#   pwdata_out  integral   8     'd0  
#   pready      integral   1     'h0  
# ------------------------------------
# UVM_INFO ../ENV/Bridge_assertion.sv(67) @ 370: reporter [ASR VAL_PSEL PASS] VALID PSEL CHECK PASSED
# UVM_INFO ../ENV/Bridge_assertion.sv(79) @ 370: reporter [ASR VAL_RDY PASS] VALID PREADY CHECK PASSED
# UVM_INFO ../ENV/Bridge_assertion.sv(75) @ 370: reporter [ASR VAL_ADDR PASS] VALID PADDR CHECK PASSED
# UVM_INFO ../ENV/Bridge_assertion.sv(71) @ 388: reporter [ASR VAL_SDA PASS] VALID SDA CHECK PASSED
# UVM_INFO ../ENV/APB/APB_monitor.sv(34) @ 390: uvm_test_top.env_h.apb_agnt_h.mon_h [APB MON] APB MONITOR is monitoring
# ------------------------------------
# Name          Type       Size  Value
# ------------------------------------
# APB_trans     APB_trans  -     @1199
#   psel        integral   1     'h1  
#   penable     integral   1     'h1  
#   pwrite      integral   1     'h1  
#   preset      integral   1     'h1  
#   paddr       integral   8     255  
#   pwdata_in   integral   8     152  
#   prdata_out  integral   8     'd0  
#   pwdata_out  integral   8     'd0  
#   pready      integral   1     'h0  
# ------------------------------------
# UVM_INFO ../ENV/Bridge_assertion.sv(67) @ 390: reporter [ASR VAL_PSEL PASS] VALID PSEL CHECK PASSED
# UVM_INFO ../ENV/Bridge_assertion.sv(79) @ 390: reporter [ASR VAL_RDY PASS] VALID PREADY CHECK PASSED
# UVM_INFO ../ENV/Bridge_assertion.sv(75) @ 390: reporter [ASR VAL_ADDR PASS] VALID PADDR CHECK PASSED
# UVM_INFO ../ENV/Bridge_assertion.sv(71) @ 408: reporter [ASR VAL_SDA PASS] VALID SDA CHECK PASSED
# UVM_INFO ../ENV/APB/APB_monitor.sv(34) @ 410: uvm_test_top.env_h.apb_agnt_h.mon_h [APB MON] APB MONITOR is monitoring
# ------------------------------------
# Name          Type       Size  Value
# ------------------------------------
# APB_trans     APB_trans  -     @1203
#   psel        integral   1     'h1  
#   penable     integral   1     'h1  
#   pwrite      integral   1     'h1  
#   preset      integral   1     'h1  
#   paddr       integral   8     255  
#   pwdata_in   integral   8     152  
#   prdata_out  integral   8     'd0  
#   pwdata_out  integral   8     'd0  
#   pready      integral   1     'h1  
# ------------------------------------
# UVM_INFO ../ENV/Bridge_sb.sv(96) @ 410: uvm_test_top.env_h.scbd_h [APB WRITE METHOD] TX APB REC in SB : 152
# UVM_INFO ../ENV/Bridge_sb.sv(101) @ 410: uvm_test_top.env_h.scbd_h [APB WRITE CYCLE] \\\\\\\\\\\\\MEMORY : 47 114 152 0 0 0 0 0			WR_PT=3	RD_PT=0
# UVM_INFO ../ENV/APB/APB_driver.sv(17) @ 410: uvm_test_top.env_h.apb_agnt_h.drv_h [APB DRV] _______________APB DRIVER IS DRIVING
# -------------------------------------------------------------------------------------------
# Name                           Type       Size  Value                                      
# -------------------------------------------------------------------------------------------
# trans_h                        APB_trans  -     @1215                                      
#   psel                         integral   1     'h1                                        
#   penable                      integral   1     'h1                                        
#   pwrite                       integral   1     'h1                                        
#   preset                       integral   1     'h1                                        
#   paddr                        integral   8     255                                        
#   pwdata_in                    integral   8     220                                        
#   prdata_out                   integral   8     'd0                                        
#   pwdata_out                   integral   8     'd0                                        
#   pready                       integral   1     'h0                                        
#   begin_time                   time       64    410                                        
#   depth                        int        32    'd3                                        
#   parent sequence (name)       string     9     apb_seq_h                                  
#   parent sequence (full name)  string     43    uvm_test_top.env_h.vseqr_h.vseq_h.apb_seq_h
#   sequencer                    string     36    uvm_test_top.env_h.apb_agnt_h.seqr_h       
# -------------------------------------------------------------------------------------------
# UVM_INFO ../ENV/Bridge_assertion.sv(67) @ 410: reporter [ASR VAL_PSEL PASS] VALID PSEL CHECK PASSED
# UVM_INFO ../ENV/Bridge_assertion.sv(79) @ 410: reporter [ASR VAL_RDY PASS] VALID PREADY CHECK PASSED
# UVM_INFO ../ENV/Bridge_assertion.sv(75) @ 410: reporter [ASR VAL_ADDR PASS] VALID PADDR CHECK PASSED
# UVM_INFO ../ENV/Bridge_assertion.sv(71) @ 428: reporter [ASR VAL_SDA PASS] VALID SDA CHECK PASSED
# UVM_INFO ../ENV/APB/APB_monitor.sv(34) @ 430: uvm_test_top.env_h.apb_agnt_h.mon_h [APB MON] APB MONITOR is monitoring
# ------------------------------------
# Name          Type       Size  Value
# ------------------------------------
# APB_trans     APB_trans  -     @1207
#   psel        integral   1     'h1  
#   penable     integral   1     'h0  
#   pwrite      integral   1     'h1  
#   preset      integral   1     'h1  
#   paddr       integral   8     255  
#   pwdata_in   integral   8     152  
#   prdata_out  integral   8     'd0  
#   pwdata_out  integral   8     'd0  
#   pready      integral   1     'h0  
# ------------------------------------
# UVM_INFO ../ENV/Bridge_assertion.sv(67) @ 430: reporter [ASR VAL_PSEL PASS] VALID PSEL CHECK PASSED
# UVM_INFO ../ENV/Bridge_assertion.sv(79) @ 430: reporter [ASR VAL_RDY PASS] VALID PREADY CHECK PASSED
# UVM_INFO ../ENV/Bridge_assertion.sv(75) @ 430: reporter [ASR VAL_ADDR PASS] VALID PADDR CHECK PASSED
# UVM_INFO ../ENV/Bridge_assertion.sv(71) @ 448: reporter [ASR VAL_SDA PASS] VALID SDA CHECK PASSED
# UVM_INFO ../ENV/APB/APB_monitor.sv(34) @ 450: uvm_test_top.env_h.apb_agnt_h.mon_h [APB MON] APB MONITOR is monitoring
# ------------------------------------
# Name          Type       Size  Value
# ------------------------------------
# APB_trans     APB_trans  -     @1219
#   psel        integral   1     'h1  
#   penable     integral   1     'h0  
#   pwrite      integral   1     'h1  
#   preset      integral   1     'h1  
#   paddr       integral   8     255  
#   pwdata_in   integral   8     220  
#   prdata_out  integral   8     'd0  
#   pwdata_out  integral   8     'd0  
#   pready      integral   1     'h0  
# ------------------------------------
# UVM_INFO ../ENV/Bridge_assertion.sv(67) @ 450: reporter [ASR VAL_PSEL PASS] VALID PSEL CHECK PASSED
# UVM_INFO ../ENV/Bridge_assertion.sv(79) @ 450: reporter [ASR VAL_RDY PASS] VALID PREADY CHECK PASSED
# UVM_INFO ../ENV/Bridge_assertion.sv(75) @ 450: reporter [ASR VAL_ADDR PASS] VALID PADDR CHECK PASSED
# UVM_INFO ../ENV/Bridge_assertion.sv(71) @ 468: reporter [ASR VAL_SDA PASS] VALID SDA CHECK PASSED
# UVM_INFO ../ENV/APB/APB_monitor.sv(34) @ 470: uvm_test_top.env_h.apb_agnt_h.mon_h [APB MON] APB MONITOR is monitoring
# ------------------------------------
# Name          Type       Size  Value
# ------------------------------------
# APB_trans     APB_trans  -     @1223
#   psel        integral   1     'h1  
#   penable     integral   1     'h1  
#   pwrite      integral   1     'h1  
#   preset      integral   1     'h1  
#   paddr       integral   8     255  
#   pwdata_in   integral   8     220  
#   prdata_out  integral   8     'd0  
#   pwdata_out  integral   8     'd0  
#   pready      integral   1     'h0  
# ------------------------------------
# UVM_INFO ../ENV/Bridge_assertion.sv(67) @ 470: reporter [ASR VAL_PSEL PASS] VALID PSEL CHECK PASSED
# UVM_INFO ../ENV/Bridge_assertion.sv(79) @ 470: reporter [ASR VAL_RDY PASS] VALID PREADY CHECK PASSED
# UVM_INFO ../ENV/Bridge_assertion.sv(75) @ 470: reporter [ASR VAL_ADDR PASS] VALID PADDR CHECK PASSED
# UVM_INFO ../ENV/Bridge_assertion.sv(71) @ 488: reporter [ASR VAL_SDA PASS] VALID SDA CHECK PASSED
# UVM_INFO ../ENV/APB/APB_monitor.sv(34) @ 490: uvm_test_top.env_h.apb_agnt_h.mon_h [APB MON] APB MONITOR is monitoring
# ------------------------------------
# Name          Type       Size  Value
# ------------------------------------
# APB_trans     APB_trans  -     @1227
#   psel        integral   1     'h1  
#   penable     integral   1     'h1  
#   pwrite      integral   1     'h1  
#   preset      integral   1     'h1  
#   paddr       integral   8     255  
#   pwdata_in   integral   8     220  
#   prdata_out  integral   8     'd0  
#   pwdata_out  integral   8     'd0  
#   pready      integral   1     'h0  
# ------------------------------------
# UVM_INFO ../ENV/Bridge_assertion.sv(67) @ 490: reporter [ASR VAL_PSEL PASS] VALID PSEL CHECK PASSED
# UVM_INFO ../ENV/Bridge_assertion.sv(79) @ 490: reporter [ASR VAL_RDY PASS] VALID PREADY CHECK PASSED
# UVM_INFO ../ENV/Bridge_assertion.sv(75) @ 490: reporter [ASR VAL_ADDR PASS] VALID PADDR CHECK PASSED
# UVM_INFO ../ENV/Bridge_assertion.sv(71) @ 508: reporter [ASR VAL_SDA PASS] VALID SDA CHECK PASSED
# UVM_INFO ../ENV/APB/APB_monitor.sv(34) @ 510: uvm_test_top.env_h.apb_agnt_h.mon_h [APB MON] APB MONITOR is monitoring
# ------------------------------------
# Name          Type       Size  Value
# ------------------------------------
# APB_trans     APB_trans  -     @1231
#   psel        integral   1     'h1  
#   penable     integral   1     'h1  
#   pwrite      integral   1     'h1  
#   preset      integral   1     'h1  
#   paddr       integral   8     255  
#   pwdata_in   integral   8     220  
#   prdata_out  integral   8     'd0  
#   pwdata_out  integral   8     'd0  
#   pready      integral   1     'h0  
# ------------------------------------
# UVM_INFO ../ENV/Bridge_assertion.sv(67) @ 510: reporter [ASR VAL_PSEL PASS] VALID PSEL CHECK PASSED
# UVM_INFO ../ENV/Bridge_assertion.sv(79) @ 510: reporter [ASR VAL_RDY PASS] VALID PREADY CHECK PASSED
# UVM_INFO ../ENV/Bridge_assertion.sv(75) @ 510: reporter [ASR VAL_ADDR PASS] VALID PADDR CHECK PASSED
# UVM_INFO ../ENV/Bridge_assertion.sv(71) @ 528: reporter [ASR VAL_SDA PASS] VALID SDA CHECK PASSED
# UVM_INFO ../ENV/APB/APB_monitor.sv(34) @ 530: uvm_test_top.env_h.apb_agnt_h.mon_h [APB MON] APB MONITOR is monitoring
# ------------------------------------
# Name          Type       Size  Value
# ------------------------------------
# APB_trans     APB_trans  -     @1235
#   psel        integral   1     'h1  
#   penable     integral   1     'h1  
#   pwrite      integral   1     'h1  
#   preset      integral   1     'h1  
#   paddr       integral   8     255  
#   pwdata_in   integral   8     220  
#   prdata_out  integral   8     'd0  
#   pwdata_out  integral   8     'd0  
#   pready      integral   1     'h0  
# ------------------------------------
# UVM_INFO ../ENV/Bridge_assertion.sv(67) @ 530: reporter [ASR VAL_PSEL PASS] VALID PSEL CHECK PASSED
# UVM_INFO ../ENV/Bridge_assertion.sv(79) @ 530: reporter [ASR VAL_RDY PASS] VALID PREADY CHECK PASSED
# UVM_INFO ../ENV/Bridge_assertion.sv(75) @ 530: reporter [ASR VAL_ADDR PASS] VALID PADDR CHECK PASSED
# UVM_INFO ../ENV/Bridge_assertion.sv(71) @ 548: reporter [ASR VAL_SDA PASS] VALID SDA CHECK PASSED
# UVM_INFO ../ENV/APB/APB_monitor.sv(34) @ 550: uvm_test_top.env_h.apb_agnt_h.mon_h [APB MON] APB MONITOR is monitoring
# ------------------------------------
# Name          Type       Size  Value
# ------------------------------------
# APB_trans     APB_trans  -     @1239
#   psel        integral   1     'h1  
#   penable     integral   1     'h1  
#   pwrite      integral   1     'h1  
#   preset      integral   1     'h1  
#   paddr       integral   8     255  
#   pwdata_in   integral   8     220  
#   prdata_out  integral   8     'd0  
#   pwdata_out  integral   8     'd0  
#   pready      integral   1     'h0  
# ------------------------------------
# UVM_INFO ../ENV/Bridge_assertion.sv(67) @ 550: reporter [ASR VAL_PSEL PASS] VALID PSEL CHECK PASSED
# UVM_INFO ../ENV/Bridge_assertion.sv(79) @ 550: reporter [ASR VAL_RDY PASS] VALID PREADY CHECK PASSED
# UVM_INFO ../ENV/Bridge_assertion.sv(75) @ 550: reporter [ASR VAL_ADDR PASS] VALID PADDR CHECK PASSED
# UVM_INFO ../ENV/Bridge_assertion.sv(71) @ 568: reporter [ASR VAL_SDA PASS] VALID SDA CHECK PASSED
# UVM_INFO ../ENV/APB/APB_monitor.sv(34) @ 570: uvm_test_top.env_h.apb_agnt_h.mon_h [APB MON] APB MONITOR is monitoring
# ------------------------------------
# Name          Type       Size  Value
# ------------------------------------
# APB_trans     APB_trans  -     @1243
#   psel        integral   1     'h1  
#   penable     integral   1     'h1  
#   pwrite      integral   1     'h1  
#   preset      integral   1     'h1  
#   paddr       integral   8     255  
#   pwdata_in   integral   8     220  
#   prdata_out  integral   8     'd0  
#   pwdata_out  integral   8     'd0  
#   pready      integral   1     'h0  
# ------------------------------------
# UVM_INFO ../ENV/Bridge_assertion.sv(67) @ 570: reporter [ASR VAL_PSEL PASS] VALID PSEL CHECK PASSED
# UVM_INFO ../ENV/Bridge_assertion.sv(79) @ 570: reporter [ASR VAL_RDY PASS] VALID PREADY CHECK PASSED
# UVM_INFO ../ENV/Bridge_assertion.sv(75) @ 570: reporter [ASR VAL_ADDR PASS] VALID PADDR CHECK PASSED
# UVM_INFO ../ENV/Bridge_assertion.sv(71) @ 588: reporter [ASR VAL_SDA PASS] VALID SDA CHECK PASSED
# UVM_INFO ../ENV/APB/APB_monitor.sv(34) @ 590: uvm_test_top.env_h.apb_agnt_h.mon_h [APB MON] APB MONITOR is monitoring
# ------------------------------------
# Name          Type       Size  Value
# ------------------------------------
# APB_trans     APB_trans  -     @1247
#   psel        integral   1     'h1  
#   penable     integral   1     'h1  
#   pwrite      integral   1     'h1  
#   preset      integral   1     'h1  
#   paddr       integral   8     255  
#   pwdata_in   integral   8     220  
#   prdata_out  integral   8     'd0  
#   pwdata_out  integral   8     'd0  
#   pready      integral   1     'h0  
# ------------------------------------
# UVM_INFO ../ENV/Bridge_assertion.sv(67) @ 590: reporter [ASR VAL_PSEL PASS] VALID PSEL CHECK PASSED
# UVM_INFO ../ENV/Bridge_assertion.sv(79) @ 590: reporter [ASR VAL_RDY PASS] VALID PREADY CHECK PASSED
# UVM_INFO ../ENV/Bridge_assertion.sv(75) @ 590: reporter [ASR VAL_ADDR PASS] VALID PADDR CHECK PASSED
# UVM_INFO ../ENV/Bridge_assertion.sv(71) @ 608: reporter [ASR VAL_SDA PASS] VALID SDA CHECK PASSED
# UVM_INFO ../ENV/APB/APB_monitor.sv(34) @ 610: uvm_test_top.env_h.apb_agnt_h.mon_h [APB MON] APB MONITOR is monitoring
# ------------------------------------
# Name          Type       Size  Value
# ------------------------------------
# APB_trans     APB_trans  -     @1251
#   psel        integral   1     'h1  
#   penable     integral   1     'h1  
#   pwrite      integral   1     'h1  
#   preset      integral   1     'h1  
#   paddr       integral   8     255  
#   pwdata_in   integral   8     220  
#   prdata_out  integral   8     'd0  
#   pwdata_out  integral   8     'd0  
#   pready      integral   1     'h1  
# ------------------------------------
# UVM_INFO ../ENV/Bridge_sb.sv(96) @ 610: uvm_test_top.env_h.scbd_h [APB WRITE METHOD] TX APB REC in SB : 220
# UVM_INFO ../ENV/Bridge_sb.sv(101) @ 610: uvm_test_top.env_h.scbd_h [APB WRITE CYCLE] \\\\\\\\\\\\\MEMORY : 47 114 152 220 0 0 0 0			WR_PT=4	RD_PT=0
# UVM_INFO ../ENV/APB/APB_driver.sv(17) @ 610: uvm_test_top.env_h.apb_agnt_h.drv_h [APB DRV] _______________APB DRIVER IS DRIVING
# -------------------------------------------------------------------------------------------
# Name                           Type       Size  Value                                      
# -------------------------------------------------------------------------------------------
# trans_h                        APB_trans  -     @1263                                      
#   psel                         integral   1     'h1                                        
#   penable                      integral   1     'h1                                        
#   pwrite                       integral   1     'h1                                        
#   preset                       integral   1     'h1                                        
#   paddr                        integral   8     255                                        
#   pwdata_in                    integral   8     'd90                                       
#   prdata_out                   integral   8     'd0                                        
#   pwdata_out                   integral   8     'd0                                        
#   pready                       integral   1     'h0                                        
#   begin_time                   time       64    610                                        
#   depth                        int        32    'd3                                        
#   parent sequence (name)       string     9     apb_seq_h                                  
#   parent sequence (full name)  string     43    uvm_test_top.env_h.vseqr_h.vseq_h.apb_seq_h
#   sequencer                    string     36    uvm_test_top.env_h.apb_agnt_h.seqr_h       
# -------------------------------------------------------------------------------------------
# UVM_INFO ../ENV/Bridge_assertion.sv(67) @ 610: reporter [ASR VAL_PSEL PASS] VALID PSEL CHECK PASSED
# UVM_INFO ../ENV/Bridge_assertion.sv(79) @ 610: reporter [ASR VAL_RDY PASS] VALID PREADY CHECK PASSED
# UVM_INFO ../ENV/Bridge_assertion.sv(75) @ 610: reporter [ASR VAL_ADDR PASS] VALID PADDR CHECK PASSED
# UVM_INFO ../ENV/Bridge_assertion.sv(71) @ 628: reporter [ASR VAL_SDA PASS] VALID SDA CHECK PASSED
# UVM_INFO ../ENV/APB/APB_monitor.sv(34) @ 630: uvm_test_top.env_h.apb_agnt_h.mon_h [APB MON] APB MONITOR is monitoring
# ------------------------------------
# Name          Type       Size  Value
# ------------------------------------
# APB_trans     APB_trans  -     @1255
#   psel        integral   1     'h1  
#   penable     integral   1     'h0  
#   pwrite      integral   1     'h1  
#   preset      integral   1     'h1  
#   paddr       integral   8     255  
#   pwdata_in   integral   8     220  
#   prdata_out  integral   8     'd0  
#   pwdata_out  integral   8     'd0  
#   pready      integral   1     'h0  
# ------------------------------------
# UVM_INFO ../ENV/Bridge_assertion.sv(67) @ 630: reporter [ASR VAL_PSEL PASS] VALID PSEL CHECK PASSED
# UVM_INFO ../ENV/Bridge_assertion.sv(79) @ 630: reporter [ASR VAL_RDY PASS] VALID PREADY CHECK PASSED
# UVM_INFO ../ENV/Bridge_assertion.sv(75) @ 630: reporter [ASR VAL_ADDR PASS] VALID PADDR CHECK PASSED
# UVM_INFO ../ENV/Bridge_assertion.sv(71) @ 648: reporter [ASR VAL_SDA PASS] VALID SDA CHECK PASSED
# UVM_INFO ../ENV/APB/APB_monitor.sv(34) @ 650: uvm_test_top.env_h.apb_agnt_h.mon_h [APB MON] APB MONITOR is monitoring
# ------------------------------------
# Name          Type       Size  Value
# ------------------------------------
# APB_trans     APB_trans  -     @1267
#   psel        integral   1     'h1  
#   penable     integral   1     'h0  
#   pwrite      integral   1     'h1  
#   preset      integral   1     'h1  
#   paddr       integral   8     255  
#   pwdata_in   integral   8     'd90 
#   prdata_out  integral   8     'd0  
#   pwdata_out  integral   8     'd0  
#   pready      integral   1     'h0  
# ------------------------------------
# UVM_INFO ../ENV/Bridge_assertion.sv(67) @ 650: reporter [ASR VAL_PSEL PASS] VALID PSEL CHECK PASSED
# UVM_INFO ../ENV/Bridge_assertion.sv(79) @ 650: reporter [ASR VAL_RDY PASS] VALID PREADY CHECK PASSED
# UVM_INFO ../ENV/Bridge_assertion.sv(75) @ 650: reporter [ASR VAL_ADDR PASS] VALID PADDR CHECK PASSED
# UVM_INFO ../ENV/Bridge_assertion.sv(71) @ 668: reporter [ASR VAL_SDA PASS] VALID SDA CHECK PASSED
# UVM_INFO ../ENV/APB/APB_monitor.sv(34) @ 670: uvm_test_top.env_h.apb_agnt_h.mon_h [APB MON] APB MONITOR is monitoring
# ------------------------------------
# Name          Type       Size  Value
# ------------------------------------
# APB_trans     APB_trans  -     @1271
#   psel        integral   1     'h1  
#   penable     integral   1     'h1  
#   pwrite      integral   1     'h1  
#   preset      integral   1     'h1  
#   paddr       integral   8     255  
#   pwdata_in   integral   8     'd90 
#   prdata_out  integral   8     'd0  
#   pwdata_out  integral   8     'd0  
#   pready      integral   1     'h0  
# ------------------------------------
# UVM_INFO ../ENV/Bridge_assertion.sv(67) @ 670: reporter [ASR VAL_PSEL PASS] VALID PSEL CHECK PASSED
# UVM_INFO ../ENV/Bridge_assertion.sv(79) @ 670: reporter [ASR VAL_RDY PASS] VALID PREADY CHECK PASSED
# UVM_INFO ../ENV/Bridge_assertion.sv(75) @ 670: reporter [ASR VAL_ADDR PASS] VALID PADDR CHECK PASSED
# UVM_INFO ../ENV/Bridge_assertion.sv(71) @ 688: reporter [ASR VAL_SDA PASS] VALID SDA CHECK PASSED
# UVM_INFO ../ENV/APB/APB_monitor.sv(34) @ 690: uvm_test_top.env_h.apb_agnt_h.mon_h [APB MON] APB MONITOR is monitoring
# ------------------------------------
# Name          Type       Size  Value
# ------------------------------------
# APB_trans     APB_trans  -     @1275
#   psel        integral   1     'h1  
#   penable     integral   1     'h1  
#   pwrite      integral   1     'h1  
#   preset      integral   1     'h1  
#   paddr       integral   8     255  
#   pwdata_in   integral   8     'd90 
#   prdata_out  integral   8     'd0  
#   pwdata_out  integral   8     'd0  
#   pready      integral   1     'h1  
# ------------------------------------
# UVM_INFO ../ENV/Bridge_sb.sv(96) @ 690: uvm_test_top.env_h.scbd_h [APB WRITE METHOD] TX APB REC in SB : 90
# UVM_INFO ../ENV/Bridge_sb.sv(101) @ 690: uvm_test_top.env_h.scbd_h [APB WRITE CYCLE] \\\\\\\\\\\\\MEMORY : 47 114 152 220 90 0 0 0			WR_PT=5	RD_PT=0
# UVM_INFO ../ENV/APB/APB_driver.sv(17) @ 690: uvm_test_top.env_h.apb_agnt_h.drv_h [APB DRV] _______________APB DRIVER IS DRIVING
# -------------------------------------------------------------------------------------------
# Name                           Type       Size  Value                                      
# -------------------------------------------------------------------------------------------
# trans_h                        APB_trans  -     @1287                                      
#   psel                         integral   1     'h1                                        
#   penable                      integral   1     'h1                                        
#   pwrite                       integral   1     'h1                                        
#   preset                       integral   1     'h1                                        
#   paddr                        integral   8     255                                        
#   pwdata_in                    integral   8     241                                        
#   prdata_out                   integral   8     'd0                                        
#   pwdata_out                   integral   8     'd0                                        
#   pready                       integral   1     'h0                                        
#   begin_time                   time       64    690                                        
#   depth                        int        32    'd3                                        
#   parent sequence (name)       string     9     apb_seq_h                                  
#   parent sequence (full name)  string     43    uvm_test_top.env_h.vseqr_h.vseq_h.apb_seq_h
#   sequencer                    string     36    uvm_test_top.env_h.apb_agnt_h.seqr_h       
# -------------------------------------------------------------------------------------------
# UVM_INFO ../ENV/Bridge_assertion.sv(67) @ 690: reporter [ASR VAL_PSEL PASS] VALID PSEL CHECK PASSED
# UVM_INFO ../ENV/Bridge_assertion.sv(79) @ 690: reporter [ASR VAL_RDY PASS] VALID PREADY CHECK PASSED
# UVM_INFO ../ENV/Bridge_assertion.sv(75) @ 690: reporter [ASR VAL_ADDR PASS] VALID PADDR CHECK PASSED
# UVM_INFO ../ENV/Bridge_assertion.sv(71) @ 708: reporter [ASR VAL_SDA PASS] VALID SDA CHECK PASSED
# UVM_INFO ../ENV/APB/APB_monitor.sv(34) @ 710: uvm_test_top.env_h.apb_agnt_h.mon_h [APB MON] APB MONITOR is monitoring
# ------------------------------------
# Name          Type       Size  Value
# ------------------------------------
# APB_trans     APB_trans  -     @1279
#   psel        integral   1     'h1  
#   penable     integral   1     'h0  
#   pwrite      integral   1     'h1  
#   preset      integral   1     'h1  
#   paddr       integral   8     255  
#   pwdata_in   integral   8     'd90 
#   prdata_out  integral   8     'd0  
#   pwdata_out  integral   8     'd0  
#   pready      integral   1     'h1  
# ------------------------------------
# UVM_INFO ../ENV/Bridge_assertion.sv(67) @ 710: reporter [ASR VAL_PSEL PASS] VALID PSEL CHECK PASSED
# UVM_INFO ../ENV/Bridge_assertion.sv(79) @ 710: reporter [ASR VAL_RDY PASS] VALID PREADY CHECK PASSED
# UVM_INFO ../ENV/Bridge_assertion.sv(75) @ 710: reporter [ASR VAL_ADDR PASS] VALID PADDR CHECK PASSED
# UVM_INFO ../ENV/Bridge_assertion.sv(71) @ 728: reporter [ASR VAL_SDA PASS] VALID SDA CHECK PASSED
# UVM_INFO ../ENV/APB/APB_monitor.sv(34) @ 730: uvm_test_top.env_h.apb_agnt_h.mon_h [APB MON] APB MONITOR is monitoring
# ------------------------------------
# Name          Type       Size  Value
# ------------------------------------
# APB_trans     APB_trans  -     @1291
#   psel        integral   1     'h1  
#   penable     integral   1     'h0  
#   pwrite      integral   1     'h1  
#   preset      integral   1     'h1  
#   paddr       integral   8     255  
#   pwdata_in   integral   8     241  
#   prdata_out  integral   8     'd0  
#   pwdata_out  integral   8     'd0  
#   pready      integral   1     'h0  
# ------------------------------------
# UVM_INFO ../ENV/Bridge_assertion.sv(67) @ 730: reporter [ASR VAL_PSEL PASS] VALID PSEL CHECK PASSED
# UVM_INFO ../ENV/Bridge_assertion.sv(79) @ 730: reporter [ASR VAL_RDY PASS] VALID PREADY CHECK PASSED
# UVM_INFO ../ENV/Bridge_assertion.sv(75) @ 730: reporter [ASR VAL_ADDR PASS] VALID PADDR CHECK PASSED
# UVM_INFO ../ENV/Bridge_assertion.sv(71) @ 748: reporter [ASR VAL_SDA PASS] VALID SDA CHECK PASSED
# UVM_INFO ../ENV/APB/APB_monitor.sv(34) @ 750: uvm_test_top.env_h.apb_agnt_h.mon_h [APB MON] APB MONITOR is monitoring
# ------------------------------------
# Name          Type       Size  Value
# ------------------------------------
# APB_trans     APB_trans  -     @1295
#   psel        integral   1     'h1  
#   penable     integral   1     'h1  
#   pwrite      integral   1     'h1  
#   preset      integral   1     'h1  
#   paddr       integral   8     255  
#   pwdata_in   integral   8     241  
#   prdata_out  integral   8     'd0  
#   pwdata_out  integral   8     'd0  
#   pready      integral   1     'h0  
# ------------------------------------
# UVM_INFO ../ENV/Bridge_assertion.sv(67) @ 750: reporter [ASR VAL_PSEL PASS] VALID PSEL CHECK PASSED
# UVM_INFO ../ENV/Bridge_assertion.sv(79) @ 750: reporter [ASR VAL_RDY PASS] VALID PREADY CHECK PASSED
# UVM_INFO ../ENV/Bridge_assertion.sv(75) @ 750: reporter [ASR VAL_ADDR PASS] VALID PADDR CHECK PASSED
# UVM_INFO ../ENV/Bridge_assertion.sv(71) @ 768: reporter [ASR VAL_SDA PASS] VALID SDA CHECK PASSED
# UVM_INFO ../ENV/APB/APB_monitor.sv(34) @ 770: uvm_test_top.env_h.apb_agnt_h.mon_h [APB MON] APB MONITOR is monitoring
# ------------------------------------
# Name          Type       Size  Value
# ------------------------------------
# APB_trans     APB_trans  -     @1299
#   psel        integral   1     'h1  
#   penable     integral   1     'h1  
#   pwrite      integral   1     'h1  
#   preset      integral   1     'h1  
#   paddr       integral   8     255  
#   pwdata_in   integral   8     241  
#   prdata_out  integral   8     'd0  
#   pwdata_out  integral   8     'd0  
#   pready      integral   1     'h1  
# ------------------------------------
# UVM_INFO ../ENV/Bridge_sb.sv(96) @ 770: uvm_test_top.env_h.scbd_h [APB WRITE METHOD] TX APB REC in SB : 241
# UVM_INFO ../ENV/Bridge_sb.sv(101) @ 770: uvm_test_top.env_h.scbd_h [APB WRITE CYCLE] \\\\\\\\\\\\\MEMORY : 47 114 152 220 90 241 0 0			WR_PT=6	RD_PT=0
# UVM_INFO ../ENV/APB/APB_driver.sv(17) @ 770: uvm_test_top.env_h.apb_agnt_h.drv_h [APB DRV] _______________APB DRIVER IS DRIVING
# -------------------------------------------------------------------------------------------
# Name                           Type       Size  Value                                      
# -------------------------------------------------------------------------------------------
# trans_h                        APB_trans  -     @1311                                      
#   psel                         integral   1     'h1                                        
#   penable                      integral   1     'h1                                        
#   pwrite                       integral   1     'h1                                        
#   preset                       integral   1     'h1                                        
#   paddr                        integral   8     255                                        
#   pwdata_in                    integral   8     223                                        
#   prdata_out                   integral   8     'd0                                        
#   pwdata_out                   integral   8     'd0                                        
#   pready                       integral   1     'h0                                        
#   begin_time                   time       64    770                                        
#   depth                        int        32    'd3                                        
#   parent sequence (name)       string     9     apb_seq_h                                  
#   parent sequence (full name)  string     43    uvm_test_top.env_h.vseqr_h.vseq_h.apb_seq_h
#   sequencer                    string     36    uvm_test_top.env_h.apb_agnt_h.seqr_h       
# -------------------------------------------------------------------------------------------
# UVM_INFO ../ENV/Bridge_assertion.sv(67) @ 770: reporter [ASR VAL_PSEL PASS] VALID PSEL CHECK PASSED
# UVM_INFO ../ENV/Bridge_assertion.sv(79) @ 770: reporter [ASR VAL_RDY PASS] VALID PREADY CHECK PASSED
# UVM_INFO ../ENV/Bridge_assertion.sv(75) @ 770: reporter [ASR VAL_ADDR PASS] VALID PADDR CHECK PASSED
# UVM_INFO ../ENV/Bridge_assertion.sv(71) @ 788: reporter [ASR VAL_SDA PASS] VALID SDA CHECK PASSED
# UVM_INFO ../ENV/APB/APB_monitor.sv(34) @ 790: uvm_test_top.env_h.apb_agnt_h.mon_h [APB MON] APB MONITOR is monitoring
# ------------------------------------
# Name          Type       Size  Value
# ------------------------------------
# APB_trans     APB_trans  -     @1303
#   psel        integral   1     'h1  
#   penable     integral   1     'h0  
#   pwrite      integral   1     'h1  
#   preset      integral   1     'h1  
#   paddr       integral   8     255  
#   pwdata_in   integral   8     241  
#   prdata_out  integral   8     'd0  
#   pwdata_out  integral   8     'd0  
#   pready      integral   1     'h0  
# ------------------------------------
# UVM_INFO ../ENV/Bridge_assertion.sv(67) @ 790: reporter [ASR VAL_PSEL PASS] VALID PSEL CHECK PASSED
# UVM_INFO ../ENV/Bridge_assertion.sv(79) @ 790: reporter [ASR VAL_RDY PASS] VALID PREADY CHECK PASSED
# UVM_INFO ../ENV/Bridge_assertion.sv(75) @ 790: reporter [ASR VAL_ADDR PASS] VALID PADDR CHECK PASSED
# UVM_INFO ../ENV/Bridge_assertion.sv(71) @ 808: reporter [ASR VAL_SDA PASS] VALID SDA CHECK PASSED
# UVM_INFO ../ENV/APB/APB_monitor.sv(34) @ 810: uvm_test_top.env_h.apb_agnt_h.mon_h [APB MON] APB MONITOR is monitoring
# ------------------------------------
# Name          Type       Size  Value
# ------------------------------------
# APB_trans     APB_trans  -     @1315
#   psel        integral   1     'h1  
#   penable     integral   1     'h0  
#   pwrite      integral   1     'h1  
#   preset      integral   1     'h1  
#   paddr       integral   8     255  
#   pwdata_in   integral   8     223  
#   prdata_out  integral   8     'd0  
#   pwdata_out  integral   8     'd0  
#   pready      integral   1     'h0  
# ------------------------------------
# UVM_INFO ../ENV/Bridge_assertion.sv(67) @ 810: reporter [ASR VAL_PSEL PASS] VALID PSEL CHECK PASSED
# UVM_INFO ../ENV/Bridge_assertion.sv(79) @ 810: reporter [ASR VAL_RDY PASS] VALID PREADY CHECK PASSED
# UVM_INFO ../ENV/Bridge_assertion.sv(75) @ 810: reporter [ASR VAL_ADDR PASS] VALID PADDR CHECK PASSED
# UVM_INFO ../ENV/Bridge_assertion.sv(71) @ 828: reporter [ASR VAL_SDA PASS] VALID SDA CHECK PASSED
# UVM_INFO ../ENV/APB/APB_monitor.sv(34) @ 830: uvm_test_top.env_h.apb_agnt_h.mon_h [APB MON] APB MONITOR is monitoring
# ------------------------------------
# Name          Type       Size  Value
# ------------------------------------
# APB_trans     APB_trans  -     @1319
#   psel        integral   1     'h1  
#   penable     integral   1     'h1  
#   pwrite      integral   1     'h1  
#   preset      integral   1     'h1  
#   paddr       integral   8     255  
#   pwdata_in   integral   8     223  
#   prdata_out  integral   8     'd0  
#   pwdata_out  integral   8     'd0  
#   pready      integral   1     'h0  
# ------------------------------------
# UVM_INFO ../ENV/Bridge_assertion.sv(67) @ 830: reporter [ASR VAL_PSEL PASS] VALID PSEL CHECK PASSED
# UVM_INFO ../ENV/Bridge_assertion.sv(79) @ 830: reporter [ASR VAL_RDY PASS] VALID PREADY CHECK PASSED
# UVM_INFO ../ENV/Bridge_assertion.sv(75) @ 830: reporter [ASR VAL_ADDR PASS] VALID PADDR CHECK PASSED
# UVM_INFO ../ENV/Bridge_assertion.sv(71) @ 848: reporter [ASR VAL_SDA PASS] VALID SDA CHECK PASSED
# UVM_INFO ../ENV/APB/APB_monitor.sv(34) @ 850: uvm_test_top.env_h.apb_agnt_h.mon_h [APB MON] APB MONITOR is monitoring
# ------------------------------------
# Name          Type       Size  Value
# ------------------------------------
# APB_trans     APB_trans  -     @1323
#   psel        integral   1     'h1  
#   penable     integral   1     'h1  
#   pwrite      integral   1     'h1  
#   preset      integral   1     'h1  
#   paddr       integral   8     255  
#   pwdata_in   integral   8     223  
#   prdata_out  integral   8     'd0  
#   pwdata_out  integral   8     'd0  
#   pready      integral   1     'h0  
# ------------------------------------
# UVM_INFO ../ENV/Bridge_assertion.sv(67) @ 850: reporter [ASR VAL_PSEL PASS] VALID PSEL CHECK PASSED
# UVM_INFO ../ENV/Bridge_assertion.sv(79) @ 850: reporter [ASR VAL_RDY PASS] VALID PREADY CHECK PASSED
# UVM_INFO ../ENV/Bridge_assertion.sv(75) @ 850: reporter [ASR VAL_ADDR PASS] VALID PADDR CHECK PASSED
# UVM_INFO ../ENV/Bridge_assertion.sv(71) @ 868: reporter [ASR VAL_SDA PASS] VALID SDA CHECK PASSED
# UVM_INFO ../ENV/APB/APB_monitor.sv(34) @ 870: uvm_test_top.env_h.apb_agnt_h.mon_h [APB MON] APB MONITOR is monitoring
# ------------------------------------
# Name          Type       Size  Value
# ------------------------------------
# APB_trans     APB_trans  -     @1327
#   psel        integral   1     'h1  
#   penable     integral   1     'h1  
#   pwrite      integral   1     'h1  
#   preset      integral   1     'h1  
#   paddr       integral   8     255  
#   pwdata_in   integral   8     223  
#   prdata_out  integral   8     'd0  
#   pwdata_out  integral   8     'd0  
#   pready      integral   1     'h1  
# ------------------------------------
# UVM_INFO ../ENV/Bridge_sb.sv(96) @ 870: uvm_test_top.env_h.scbd_h [APB WRITE METHOD] TX APB REC in SB : 223
# UVM_INFO ../ENV/Bridge_sb.sv(101) @ 870: uvm_test_top.env_h.scbd_h [APB WRITE CYCLE] \\\\\\\\\\\\\MEMORY : 47 114 152 220 90 241 223 0			WR_PT=7	RD_PT=0
# UVM_INFO ../ENV/APB/APB_driver.sv(17) @ 870: uvm_test_top.env_h.apb_agnt_h.drv_h [APB DRV] _______________APB DRIVER IS DRIVING
# -------------------------------------------------------------------------------------------
# Name                           Type       Size  Value                                      
# -------------------------------------------------------------------------------------------
# trans_h                        APB_trans  -     @1339                                      
#   psel                         integral   1     'h1                                        
#   penable                      integral   1     'h1                                        
#   pwrite                       integral   1     'h1                                        
#   preset                       integral   1     'h1                                        
#   paddr                        integral   8     255                                        
#   pwdata_in                    integral   8     241                                        
#   prdata_out                   integral   8     'd0                                        
#   pwdata_out                   integral   8     'd0                                        
#   pready                       integral   1     'h0                                        
#   begin_time                   time       64    870                                        
#   depth                        int        32    'd3                                        
#   parent sequence (name)       string     9     apb_seq_h                                  
#   parent sequence (full name)  string     43    uvm_test_top.env_h.vseqr_h.vseq_h.apb_seq_h
#   sequencer                    string     36    uvm_test_top.env_h.apb_agnt_h.seqr_h       
# -------------------------------------------------------------------------------------------
# UVM_INFO ../ENV/Bridge_assertion.sv(67) @ 870: reporter [ASR VAL_PSEL PASS] VALID PSEL CHECK PASSED
# UVM_INFO ../ENV/Bridge_assertion.sv(79) @ 870: reporter [ASR VAL_RDY PASS] VALID PREADY CHECK PASSED
# UVM_INFO ../ENV/Bridge_assertion.sv(75) @ 870: reporter [ASR VAL_ADDR PASS] VALID PADDR CHECK PASSED
# UVM_INFO ../ENV/Bridge_assertion.sv(71) @ 888: reporter [ASR VAL_SDA PASS] VALID SDA CHECK PASSED
# UVM_INFO ../ENV/APB/APB_monitor.sv(34) @ 890: uvm_test_top.env_h.apb_agnt_h.mon_h [APB MON] APB MONITOR is monitoring
# ------------------------------------
# Name          Type       Size  Value
# ------------------------------------
# APB_trans     APB_trans  -     @1331
#   psel        integral   1     'h1  
#   penable     integral   1     'h0  
#   pwrite      integral   1     'h1  
#   preset      integral   1     'h1  
#   paddr       integral   8     255  
#   pwdata_in   integral   8     223  
#   prdata_out  integral   8     'd0  
#   pwdata_out  integral   8     'd0  
#   pready      integral   1     'h0  
# ------------------------------------
# UVM_INFO ../ENV/Bridge_assertion.sv(67) @ 890: reporter [ASR VAL_PSEL PASS] VALID PSEL CHECK PASSED
# UVM_INFO ../ENV/Bridge_assertion.sv(79) @ 890: reporter [ASR VAL_RDY PASS] VALID PREADY CHECK PASSED
# UVM_INFO ../ENV/Bridge_assertion.sv(75) @ 890: reporter [ASR VAL_ADDR PASS] VALID PADDR CHECK PASSED
# UVM_INFO ../ENV/Bridge_assertion.sv(71) @ 908: reporter [ASR VAL_SDA PASS] VALID SDA CHECK PASSED
# UVM_INFO ../ENV/APB/APB_monitor.sv(34) @ 910: uvm_test_top.env_h.apb_agnt_h.mon_h [APB MON] APB MONITOR is monitoring
# ------------------------------------
# Name          Type       Size  Value
# ------------------------------------
# APB_trans     APB_trans  -     @1343
#   psel        integral   1     'h1  
#   penable     integral   1     'h0  
#   pwrite      integral   1     'h1  
#   preset      integral   1     'h1  
#   paddr       integral   8     255  
#   pwdata_in   integral   8     241  
#   prdata_out  integral   8     'd0  
#   pwdata_out  integral   8     'd0  
#   pready      integral   1     'h0  
# ------------------------------------
# UVM_INFO ../ENV/Bridge_assertion.sv(67) @ 910: reporter [ASR VAL_PSEL PASS] VALID PSEL CHECK PASSED
# UVM_INFO ../ENV/Bridge_assertion.sv(79) @ 910: reporter [ASR VAL_RDY PASS] VALID PREADY CHECK PASSED
# UVM_INFO ../ENV/Bridge_assertion.sv(75) @ 910: reporter [ASR VAL_ADDR PASS] VALID PADDR CHECK PASSED
# UVM_INFO ../ENV/Bridge_assertion.sv(71) @ 928: reporter [ASR VAL_SDA PASS] VALID SDA CHECK PASSED
# UVM_INFO ../ENV/APB/APB_monitor.sv(34) @ 930: uvm_test_top.env_h.apb_agnt_h.mon_h [APB MON] APB MONITOR is monitoring
# ------------------------------------
# Name          Type       Size  Value
# ------------------------------------
# APB_trans     APB_trans  -     @1347
#   psel        integral   1     'h1  
#   penable     integral   1     'h1  
#   pwrite      integral   1     'h1  
#   preset      integral   1     'h1  
#   paddr       integral   8     255  
#   pwdata_in   integral   8     241  
#   prdata_out  integral   8     'd0  
#   pwdata_out  integral   8     'd0  
#   pready      integral   1     'h0  
# ------------------------------------
# UVM_INFO ../ENV/Bridge_assertion.sv(67) @ 930: reporter [ASR VAL_PSEL PASS] VALID PSEL CHECK PASSED
# UVM_INFO ../ENV/Bridge_assertion.sv(79) @ 930: reporter [ASR VAL_RDY PASS] VALID PREADY CHECK PASSED
# UVM_INFO ../ENV/Bridge_assertion.sv(75) @ 930: reporter [ASR VAL_ADDR PASS] VALID PADDR CHECK PASSED
# UVM_INFO ../ENV/Bridge_assertion.sv(71) @ 948: reporter [ASR VAL_SDA PASS] VALID SDA CHECK PASSED
# UVM_INFO ../ENV/APB/APB_monitor.sv(34) @ 950: uvm_test_top.env_h.apb_agnt_h.mon_h [APB MON] APB MONITOR is monitoring
# ------------------------------------
# Name          Type       Size  Value
# ------------------------------------
# APB_trans     APB_trans  -     @1351
#   psel        integral   1     'h1  
#   penable     integral   1     'h1  
#   pwrite      integral   1     'h1  
#   preset      integral   1     'h1  
#   paddr       integral   8     255  
#   pwdata_in   integral   8     241  
#   prdata_out  integral   8     'd0  
#   pwdata_out  integral   8     'd0  
#   pready      integral   1     'h0  
# ------------------------------------
# UVM_INFO ../ENV/Bridge_assertion.sv(67) @ 950: reporter [ASR VAL_PSEL PASS] VALID PSEL CHECK PASSED
# UVM_INFO ../ENV/Bridge_assertion.sv(79) @ 950: reporter [ASR VAL_RDY PASS] VALID PREADY CHECK PASSED
# UVM_INFO ../ENV/Bridge_assertion.sv(75) @ 950: reporter [ASR VAL_ADDR PASS] VALID PADDR CHECK PASSED
# UVM_INFO ../ENV/Bridge_assertion.sv(71) @ 968: reporter [ASR VAL_SDA PASS] VALID SDA CHECK PASSED
# UVM_INFO ../ENV/APB/APB_monitor.sv(34) @ 970: uvm_test_top.env_h.apb_agnt_h.mon_h [APB MON] APB MONITOR is monitoring
# ------------------------------------
# Name          Type       Size  Value
# ------------------------------------
# APB_trans     APB_trans  -     @1355
#   psel        integral   1     'h1  
#   penable     integral   1     'h1  
#   pwrite      integral   1     'h1  
#   preset      integral   1     'h1  
#   paddr       integral   8     255  
#   pwdata_in   integral   8     241  
#   prdata_out  integral   8     'd0  
#   pwdata_out  integral   8     'd0  
#   pready      integral   1     'h0  
# ------------------------------------
# UVM_INFO ../ENV/Bridge_assertion.sv(67) @ 970: reporter [ASR VAL_PSEL PASS] VALID PSEL CHECK PASSED
# UVM_INFO ../ENV/Bridge_assertion.sv(79) @ 970: reporter [ASR VAL_RDY PASS] VALID PREADY CHECK PASSED
# UVM_INFO ../ENV/Bridge_assertion.sv(75) @ 970: reporter [ASR VAL_ADDR PASS] VALID PADDR CHECK PASSED
# UVM_INFO ../ENV/Bridge_assertion.sv(71) @ 988: reporter [ASR VAL_SDA PASS] VALID SDA CHECK PASSED
# UVM_INFO ../ENV/APB/APB_monitor.sv(34) @ 990: uvm_test_top.env_h.apb_agnt_h.mon_h [APB MON] APB MONITOR is monitoring
# ------------------------------------
# Name          Type       Size  Value
# ------------------------------------
# APB_trans     APB_trans  -     @1359
#   psel        integral   1     'h1  
#   penable     integral   1     'h1  
#   pwrite      integral   1     'h1  
#   preset      integral   1     'h1  
#   paddr       integral   8     255  
#   pwdata_in   integral   8     241  
#   prdata_out  integral   8     'd0  
#   pwdata_out  integral   8     'd0  
#   pready      integral   1     'h0  
# ------------------------------------
# UVM_INFO ../ENV/Bridge_assertion.sv(67) @ 990: reporter [ASR VAL_PSEL PASS] VALID PSEL CHECK PASSED
# UVM_INFO ../ENV/Bridge_assertion.sv(79) @ 990: reporter [ASR VAL_RDY PASS] VALID PREADY CHECK PASSED
# UVM_INFO ../ENV/Bridge_assertion.sv(75) @ 990: reporter [ASR VAL_ADDR PASS] VALID PADDR CHECK PASSED
# UVM_INFO ../ENV/Bridge_assertion.sv(71) @ 1008: reporter [ASR VAL_SDA PASS] VALID SDA CHECK PASSED
# UVM_INFO ../ENV/APB/APB_monitor.sv(34) @ 1010: uvm_test_top.env_h.apb_agnt_h.mon_h [APB MON] APB MONITOR is monitoring
# ------------------------------------
# Name          Type       Size  Value
# ------------------------------------
# APB_trans     APB_trans  -     @1363
#   psel        integral   1     'h1  
#   penable     integral   1     'h1  
#   pwrite      integral   1     'h1  
#   preset      integral   1     'h1  
#   paddr       integral   8     255  
#   pwdata_in   integral   8     241  
#   prdata_out  integral   8     'd0  
#   pwdata_out  integral   8     'd0  
#   pready      integral   1     'h0  
# ------------------------------------
# UVM_INFO ../ENV/Bridge_assertion.sv(67) @ 1010: reporter [ASR VAL_PSEL PASS] VALID PSEL CHECK PASSED
# UVM_INFO ../ENV/Bridge_assertion.sv(79) @ 1010: reporter [ASR VAL_RDY PASS] VALID PREADY CHECK PASSED
# UVM_INFO ../ENV/Bridge_assertion.sv(75) @ 1010: reporter [ASR VAL_ADDR PASS] VALID PADDR CHECK PASSED
# UVM_INFO ../ENV/Bridge_assertion.sv(71) @ 1028: reporter [ASR VAL_SDA PASS] VALID SDA CHECK PASSED
# UVM_INFO ../ENV/APB/APB_monitor.sv(34) @ 1030: uvm_test_top.env_h.apb_agnt_h.mon_h [APB MON] APB MONITOR is monitoring
# ------------------------------------
# Name          Type       Size  Value
# ------------------------------------
# APB_trans     APB_trans  -     @1367
#   psel        integral   1     'h1  
#   penable     integral   1     'h1  
#   pwrite      integral   1     'h1  
#   preset      integral   1     'h1  
#   paddr       integral   8     255  
#   pwdata_in   integral   8     241  
#   prdata_out  integral   8     'd0  
#   pwdata_out  integral   8     'd0  
#   pready      integral   1     'h0  
# ------------------------------------
# UVM_INFO ../ENV/Bridge_assertion.sv(67) @ 1030: reporter [ASR VAL_PSEL PASS] VALID PSEL CHECK PASSED
# UVM_INFO ../ENV/Bridge_assertion.sv(79) @ 1030: reporter [ASR VAL_RDY PASS] VALID PREADY CHECK PASSED
# UVM_INFO ../ENV/Bridge_assertion.sv(75) @ 1030: reporter [ASR VAL_ADDR PASS] VALID PADDR CHECK PASSED
# UVM_INFO ../ENV/Bridge_assertion.sv(71) @ 1048: reporter [ASR VAL_SDA PASS] VALID SDA CHECK PASSED
# UVM_INFO ../ENV/APB/APB_monitor.sv(34) @ 1050: uvm_test_top.env_h.apb_agnt_h.mon_h [APB MON] APB MONITOR is monitoring
# ------------------------------------
# Name          Type       Size  Value
# ------------------------------------
# APB_trans     APB_trans  -     @1371
#   psel        integral   1     'h1  
#   penable     integral   1     'h1  
#   pwrite      integral   1     'h1  
#   preset      integral   1     'h1  
#   paddr       integral   8     255  
#   pwdata_in   integral   8     241  
#   prdata_out  integral   8     'd0  
#   pwdata_out  integral   8     'd0  
#   pready      integral   1     'h0  
# ------------------------------------
# UVM_INFO ../ENV/Bridge_assertion.sv(67) @ 1050: reporter [ASR VAL_PSEL PASS] VALID PSEL CHECK PASSED
# UVM_INFO ../ENV/Bridge_assertion.sv(79) @ 1050: reporter [ASR VAL_RDY PASS] VALID PREADY CHECK PASSED
# UVM_INFO ../ENV/Bridge_assertion.sv(75) @ 1050: reporter [ASR VAL_ADDR PASS] VALID PADDR CHECK PASSED
# UVM_INFO ../ENV/Bridge_assertion.sv(71) @ 1068: reporter [ASR VAL_SDA PASS] VALID SDA CHECK PASSED
# UVM_INFO ../ENV/APB/APB_monitor.sv(34) @ 1070: uvm_test_top.env_h.apb_agnt_h.mon_h [APB MON] APB MONITOR is monitoring
# ------------------------------------
# Name          Type       Size  Value
# ------------------------------------
# APB_trans     APB_trans  -     @1375
#   psel        integral   1     'h1  
#   penable     integral   1     'h1  
#   pwrite      integral   1     'h1  
#   preset      integral   1     'h1  
#   paddr       integral   8     255  
#   pwdata_in   integral   8     241  
#   prdata_out  integral   8     'd0  
#   pwdata_out  integral   8     'd0  
#   pready      integral   1     'h1  
# ------------------------------------
# UVM_INFO ../ENV/Bridge_sb.sv(96) @ 1070: uvm_test_top.env_h.scbd_h [APB WRITE METHOD] TX APB REC in SB : 241
# UVM_INFO ../ENV/Bridge_sb.sv(101) @ 1070: uvm_test_top.env_h.scbd_h [APB WRITE CYCLE] \\\\\\\\\\\\\MEMORY : 47 114 152 220 90 241 223 241			WR_PT=0	RD_PT=0
# UVM_INFO ../ENV/APB/APB_driver.sv(17) @ 1070: uvm_test_top.env_h.apb_agnt_h.drv_h [APB DRV] _______________APB DRIVER IS DRIVING
# -------------------------------------------------------------------------------------------
# Name                           Type       Size  Value                                      
# -------------------------------------------------------------------------------------------
# trans_h                        APB_trans  -     @1387                                      
#   psel                         integral   1     'h1                                        
#   penable                      integral   1     'h1                                        
#   pwrite                       integral   1     'h1                                        
#   preset                       integral   1     'h1                                        
#   paddr                        integral   8     255                                        
#   pwdata_in                    integral   8     191                                        
#   prdata_out                   integral   8     'd0                                        
#   pwdata_out                   integral   8     'd0                                        
#   pready                       integral   1     'h0                                        
#   begin_time                   time       64    1070                                       
#   depth                        int        32    'd3                                        
#   parent sequence (name)       string     9     apb_seq_h                                  
#   parent sequence (full name)  string     43    uvm_test_top.env_h.vseqr_h.vseq_h.apb_seq_h
#   sequencer                    string     36    uvm_test_top.env_h.apb_agnt_h.seqr_h       
# -------------------------------------------------------------------------------------------
# UVM_INFO ../ENV/Bridge_assertion.sv(67) @ 1070: reporter [ASR VAL_PSEL PASS] VALID PSEL CHECK PASSED
# UVM_INFO ../ENV/Bridge_assertion.sv(79) @ 1070: reporter [ASR VAL_RDY PASS] VALID PREADY CHECK PASSED
# UVM_INFO ../ENV/Bridge_assertion.sv(75) @ 1070: reporter [ASR VAL_ADDR PASS] VALID PADDR CHECK PASSED
# UVM_INFO ../ENV/Bridge_assertion.sv(71) @ 1088: reporter [ASR VAL_SDA PASS] VALID SDA CHECK PASSED
# UVM_INFO ../ENV/APB/APB_monitor.sv(34) @ 1090: uvm_test_top.env_h.apb_agnt_h.mon_h [APB MON] APB MONITOR is monitoring
# ------------------------------------
# Name          Type       Size  Value
# ------------------------------------
# APB_trans     APB_trans  -     @1379
#   psel        integral   1     'h1  
#   penable     integral   1     'h0  
#   pwrite      integral   1     'h1  
#   preset      integral   1     'h1  
#   paddr       integral   8     255  
#   pwdata_in   integral   8     241  
#   prdata_out  integral   8     'd0  
#   pwdata_out  integral   8     'd0  
#   pready      integral   1     'h1  
# ------------------------------------
# UVM_INFO ../ENV/Bridge_assertion.sv(67) @ 1090: reporter [ASR VAL_PSEL PASS] VALID PSEL CHECK PASSED
# UVM_INFO ../ENV/Bridge_assertion.sv(79) @ 1090: reporter [ASR VAL_RDY PASS] VALID PREADY CHECK PASSED
# UVM_INFO ../ENV/Bridge_assertion.sv(75) @ 1090: reporter [ASR VAL_ADDR PASS] VALID PADDR CHECK PASSED
# UVM_INFO ../ENV/Bridge_assertion.sv(71) @ 1108: reporter [ASR VAL_SDA PASS] VALID SDA CHECK PASSED
# UVM_INFO ../ENV/APB/APB_monitor.sv(34) @ 1110: uvm_test_top.env_h.apb_agnt_h.mon_h [APB MON] APB MONITOR is monitoring
# ------------------------------------
# Name          Type       Size  Value
# ------------------------------------
# APB_trans     APB_trans  -     @1391
#   psel        integral   1     'h1  
#   penable     integral   1     'h0  
#   pwrite      integral   1     'h1  
#   preset      integral   1     'h1  
#   paddr       integral   8     255  
#   pwdata_in   integral   8     191  
#   prdata_out  integral   8     'd0  
#   pwdata_out  integral   8     'd0  
#   pready      integral   1     'h0  
# ------------------------------------
# UVM_INFO ../ENV/Bridge_assertion.sv(67) @ 1110: reporter [ASR VAL_PSEL PASS] VALID PSEL CHECK PASSED
# UVM_INFO ../ENV/Bridge_assertion.sv(79) @ 1110: reporter [ASR VAL_RDY PASS] VALID PREADY CHECK PASSED
# UVM_INFO ../ENV/Bridge_assertion.sv(75) @ 1110: reporter [ASR VAL_ADDR PASS] VALID PADDR CHECK PASSED
# UVM_INFO ../ENV/Bridge_assertion.sv(71) @ 1128: reporter [ASR VAL_SDA PASS] VALID SDA CHECK PASSED
# UVM_INFO ../ENV/APB/APB_monitor.sv(34) @ 1130: uvm_test_top.env_h.apb_agnt_h.mon_h [APB MON] APB MONITOR is monitoring
# ------------------------------------
# Name          Type       Size  Value
# ------------------------------------
# APB_trans     APB_trans  -     @1395
#   psel        integral   1     'h1  
#   penable     integral   1     'h1  
#   pwrite      integral   1     'h1  
#   preset      integral   1     'h1  
#   paddr       integral   8     255  
#   pwdata_in   integral   8     191  
#   prdata_out  integral   8     'd0  
#   pwdata_out  integral   8     'd0  
#   pready      integral   1     'h0  
# ------------------------------------
# UVM_INFO ../ENV/Bridge_assertion.sv(67) @ 1130: reporter [ASR VAL_PSEL PASS] VALID PSEL CHECK PASSED
# UVM_INFO ../ENV/Bridge_assertion.sv(79) @ 1130: reporter [ASR VAL_RDY PASS] VALID PREADY CHECK PASSED
# UVM_INFO ../ENV/Bridge_assertion.sv(75) @ 1130: reporter [ASR VAL_ADDR PASS] VALID PADDR CHECK PASSED
# UVM_INFO ../ENV/Bridge_assertion.sv(71) @ 1148: reporter [ASR VAL_SDA PASS] VALID SDA CHECK PASSED
# UVM_INFO ../ENV/APB/APB_monitor.sv(34) @ 1150: uvm_test_top.env_h.apb_agnt_h.mon_h [APB MON] APB MONITOR is monitoring
# ------------------------------------
# Name          Type       Size  Value
# ------------------------------------
# APB_trans     APB_trans  -     @1399
#   psel        integral   1     'h1  
#   penable     integral   1     'h1  
#   pwrite      integral   1     'h1  
#   preset      integral   1     'h1  
#   paddr       integral   8     255  
#   pwdata_in   integral   8     191  
#   prdata_out  integral   8     'd0  
#   pwdata_out  integral   8     'd0  
#   pready      integral   1     'h1  
# ------------------------------------
# UVM_INFO ../ENV/Bridge_sb.sv(96) @ 1150: uvm_test_top.env_h.scbd_h [APB WRITE METHOD] TX APB REC in SB : 191
# UVM_INFO ../ENV/Bridge_sb.sv(101) @ 1150: uvm_test_top.env_h.scbd_h [APB WRITE CYCLE] \\\\\\\\\\\\\MEMORY : 191 114 152 220 90 241 223 241			WR_PT=1	RD_PT=0
# UVM_INFO ../ENV/APB/APB_driver.sv(17) @ 1150: uvm_test_top.env_h.apb_agnt_h.drv_h [APB DRV] _______________APB DRIVER IS DRIVING
# -------------------------------------------------------------------------------------------
# Name                           Type       Size  Value                                      
# -------------------------------------------------------------------------------------------
# trans_h                        APB_trans  -     @1411                                      
#   psel                         integral   1     'h1                                        
#   penable                      integral   1     'h1                                        
#   pwrite                       integral   1     'h1                                        
#   preset                       integral   1     'h1                                        
#   paddr                        integral   8     255                                        
#   pwdata_in                    integral   8     'd121                                      
#   prdata_out                   integral   8     'd0                                        
#   pwdata_out                   integral   8     'd0                                        
#   pready                       integral   1     'h0                                        
#   begin_time                   time       64    1150                                       
#   depth                        int        32    'd3                                        
#   parent sequence (name)       string     9     apb_seq_h                                  
#   parent sequence (full name)  string     43    uvm_test_top.env_h.vseqr_h.vseq_h.apb_seq_h
#   sequencer                    string     36    uvm_test_top.env_h.apb_agnt_h.seqr_h       
# -------------------------------------------------------------------------------------------
# UVM_INFO ../ENV/Bridge_assertion.sv(67) @ 1150: reporter [ASR VAL_PSEL PASS] VALID PSEL CHECK PASSED
# UVM_INFO ../ENV/Bridge_assertion.sv(79) @ 1150: reporter [ASR VAL_RDY PASS] VALID PREADY CHECK PASSED
# UVM_INFO ../ENV/Bridge_assertion.sv(75) @ 1150: reporter [ASR VAL_ADDR PASS] VALID PADDR CHECK PASSED
# UVM_INFO ../ENV/Bridge_assertion.sv(71) @ 1168: reporter [ASR VAL_SDA PASS] VALID SDA CHECK PASSED
# UVM_INFO ../ENV/APB/APB_monitor.sv(34) @ 1170: uvm_test_top.env_h.apb_agnt_h.mon_h [APB MON] APB MONITOR is monitoring
# ------------------------------------
# Name          Type       Size  Value
# ------------------------------------
# APB_trans     APB_trans  -     @1403
#   psel        integral   1     'h1  
#   penable     integral   1     'h0  
#   pwrite      integral   1     'h1  
#   preset      integral   1     'h1  
#   paddr       integral   8     255  
#   pwdata_in   integral   8     191  
#   prdata_out  integral   8     'd0  
#   pwdata_out  integral   8     'd0  
#   pready      integral   1     'h1  
# ------------------------------------
# UVM_INFO ../ENV/Bridge_assertion.sv(67) @ 1170: reporter [ASR VAL_PSEL PASS] VALID PSEL CHECK PASSED
# UVM_INFO ../ENV/Bridge_assertion.sv(79) @ 1170: reporter [ASR VAL_RDY PASS] VALID PREADY CHECK PASSED
# UVM_INFO ../ENV/Bridge_assertion.sv(75) @ 1170: reporter [ASR VAL_ADDR PASS] VALID PADDR CHECK PASSED
# UVM_INFO ../ENV/Bridge_assertion.sv(71) @ 1188: reporter [ASR VAL_SDA PASS] VALID SDA CHECK PASSED
# UVM_INFO ../ENV/APB/APB_monitor.sv(34) @ 1190: uvm_test_top.env_h.apb_agnt_h.mon_h [APB MON] APB MONITOR is monitoring
# ------------------------------------
# Name          Type       Size  Value
# ------------------------------------
# APB_trans     APB_trans  -     @1415
#   psel        integral   1     'h1  
#   penable     integral   1     'h0  
#   pwrite      integral   1     'h1  
#   preset      integral   1     'h1  
#   paddr       integral   8     255  
#   pwdata_in   integral   8     'd121
#   prdata_out  integral   8     'd0  
#   pwdata_out  integral   8     'd0  
#   pready      integral   1     'h0  
# ------------------------------------
# UVM_INFO ../ENV/Bridge_assertion.sv(67) @ 1190: reporter [ASR VAL_PSEL PASS] VALID PSEL CHECK PASSED
# UVM_INFO ../ENV/Bridge_assertion.sv(79) @ 1190: reporter [ASR VAL_RDY PASS] VALID PREADY CHECK PASSED
# UVM_INFO ../ENV/Bridge_assertion.sv(75) @ 1190: reporter [ASR VAL_ADDR PASS] VALID PADDR CHECK PASSED
# UVM_INFO ../ENV/Bridge_assertion.sv(71) @ 1208: reporter [ASR VAL_SDA PASS] VALID SDA CHECK PASSED
# UVM_INFO ../ENV/APB/APB_monitor.sv(34) @ 1210: uvm_test_top.env_h.apb_agnt_h.mon_h [APB MON] APB MONITOR is monitoring
# ------------------------------------
# Name          Type       Size  Value
# ------------------------------------
# APB_trans     APB_trans  -     @1419
#   psel        integral   1     'h1  
#   penable     integral   1     'h1  
#   pwrite      integral   1     'h1  
#   preset      integral   1     'h1  
#   paddr       integral   8     255  
#   pwdata_in   integral   8     'd121
#   prdata_out  integral   8     'd0  
#   pwdata_out  integral   8     'd0  
#   pready      integral   1     'h0  
# ------------------------------------
# UVM_INFO ../ENV/Bridge_assertion.sv(67) @ 1210: reporter [ASR VAL_PSEL PASS] VALID PSEL CHECK PASSED
# UVM_INFO ../ENV/Bridge_assertion.sv(79) @ 1210: reporter [ASR VAL_RDY PASS] VALID PREADY CHECK PASSED
# UVM_INFO ../ENV/Bridge_assertion.sv(75) @ 1210: reporter [ASR VAL_ADDR PASS] VALID PADDR CHECK PASSED
# UVM_INFO ../ENV/Bridge_assertion.sv(71) @ 1228: reporter [ASR VAL_SDA PASS] VALID SDA CHECK PASSED
# UVM_INFO ../ENV/APB/APB_monitor.sv(34) @ 1230: uvm_test_top.env_h.apb_agnt_h.mon_h [APB MON] APB MONITOR is monitoring
# ------------------------------------
# Name          Type       Size  Value
# ------------------------------------
# APB_trans     APB_trans  -     @1423
#   psel        integral   1     'h1  
#   penable     integral   1     'h1  
#   pwrite      integral   1     'h1  
#   preset      integral   1     'h1  
#   paddr       integral   8     255  
#   pwdata_in   integral   8     'd121
#   prdata_out  integral   8     'd0  
#   pwdata_out  integral   8     'd0  
#   pready      integral   1     'h1  
# ------------------------------------
# UVM_INFO ../ENV/Bridge_sb.sv(96) @ 1230: uvm_test_top.env_h.scbd_h [APB WRITE METHOD] TX APB REC in SB : 121
# UVM_INFO ../ENV/Bridge_sb.sv(101) @ 1230: uvm_test_top.env_h.scbd_h [APB WRITE CYCLE] \\\\\\\\\\\\\MEMORY : 191 121 152 220 90 241 223 241			WR_PT=2	RD_PT=0
# UVM_INFO ../ENV/I2C/I2C_driver.sv(17) @ 1230: uvm_test_top.env_h.i2c_agnt_h.drv_h [I2C DRV] -------------- DRIVING FROM I2C STARTED -------------------
# -------------------------------------------------------------------------------------------
# Name                           Type       Size  Value                                      
# -------------------------------------------------------------------------------------------
# trans_h                        I2C_trans  -     @1436                                      
#   sda                          integral   1     'd0                                        
#   sda_out                      integral   1     'd0                                        
#   rec_data                     integral   8     'd0                                        
#   header                       integral   8     'd0                                        
#   addr                         integral   7     101                                        
#   addr_ack                     integral   1     'h0                                        
#   begin_time                   time       64    1230                                       
#   depth                        int        32    'd3                                        
#   parent sequence (name)       string     9     i2c_seq_h                                  
#   parent sequence (full name)  string     43    uvm_test_top.env_h.vseqr_h.vseq_h.i2c_seq_h
#   sequencer                    string     36    uvm_test_top.env_h.i2c_agnt_h.seqr_h       
# -------------------------------------------------------------------------------------------
# UVM_INFO ../ENV/Bridge_assertion.sv(67) @ 1230: reporter [ASR VAL_PSEL PASS] VALID PSEL CHECK PASSED
# UVM_INFO ../ENV/Bridge_assertion.sv(79) @ 1230: reporter [ASR VAL_RDY PASS] VALID PREADY CHECK PASSED
# UVM_INFO ../ENV/Bridge_assertion.sv(75) @ 1230: reporter [ASR VAL_ADDR PASS] VALID PADDR CHECK PASSED
# UVM_INFO ../ENV/Bridge_assertion.sv(71) @ 1248: reporter [ASR VAL_SDA PASS] VALID SDA CHECK PASSED
# UVM_INFO ../ENV/APB/APB_monitor.sv(34) @ 1250: uvm_test_top.env_h.apb_agnt_h.mon_h [APB MON] APB MONITOR is monitoring
# ------------------------------------
# Name          Type       Size  Value
# ------------------------------------
# APB_trans     APB_trans  -     @1427
#   psel        integral   1     'h1  
#   penable     integral   1     'h0  
#   pwrite      integral   1     'h1  
#   preset      integral   1     'h1  
#   paddr       integral   8     255  
#   pwdata_in   integral   8     'd121
#   prdata_out  integral   8     'd0  
#   pwdata_out  integral   8     'd0  
#   pready      integral   1     'h1  
# ------------------------------------
# UVM_INFO ../ENV/Bridge_assertion.sv(67) @ 1250: reporter [ASR VAL_PSEL PASS] VALID PSEL CHECK PASSED
# UVM_INFO ../ENV/Bridge_assertion.sv(79) @ 1250: reporter [ASR VAL_RDY PASS] VALID PREADY CHECK PASSED
# UVM_INFO ../ENV/Bridge_assertion.sv(75) @ 1250: reporter [ASR VAL_ADDR PASS] VALID PADDR CHECK PASSED
# UVM_INFO ../ENV/I2C/I2C_driver.sv(30) @ 1253: uvm_test_top.env_h.i2c_agnt_h.drv_h [I2C START] >>>>>>>>>>> I2C DRIVER START DETECTED >>>>>>>>>>>>>>>
# UVM_INFO ../ENV/I2C/I2C_monitor.sv(26) @ 1253: uvm_test_top.env_h.i2c_agnt_h.mon_h [I2C START] I2C MONITOR START DETECTED >>>>>>>>>>>>>>>>>>>>>
# UVM_INFO ../ENV/Bridge_assertion.sv(71) @ 1268: reporter [ASR VAL_SDA PASS] VALID SDA CHECK PASSED
# UVM_INFO ../ENV/APB/APB_monitor.sv(34) @ 1270: uvm_test_top.env_h.apb_agnt_h.mon_h [APB MON] APB MONITOR is monitoring
# ------------------------------------
# Name          Type       Size  Value
# ------------------------------------
# APB_trans     APB_trans  -     @1440
#   psel        integral   1     'h1  
#   penable     integral   1     'h0  
#   pwrite      integral   1     'h1  
#   preset      integral   1     'h1  
#   paddr       integral   8     255  
#   pwdata_in   integral   8     'd121
#   prdata_out  integral   8     'd0  
#   pwdata_out  integral   8     'd0  
#   pready      integral   1     'h0  
# ------------------------------------
# UVM_INFO ../ENV/Bridge_assertion.sv(67) @ 1270: reporter [ASR VAL_PSEL PASS] VALID PSEL CHECK PASSED
# UVM_INFO ../ENV/Bridge_assertion.sv(79) @ 1270: reporter [ASR VAL_RDY PASS] VALID PREADY CHECK PASSED
# UVM_INFO ../ENV/Bridge_assertion.sv(75) @ 1270: reporter [ASR VAL_ADDR PASS] VALID PADDR CHECK PASSED
# UVM_INFO ../ENV/Bridge_assertion.sv(71) @ 1288: reporter [ASR VAL_SDA PASS] VALID SDA CHECK PASSED
# UVM_INFO ../ENV/APB/APB_monitor.sv(34) @ 1290: uvm_test_top.env_h.apb_agnt_h.mon_h [APB MON] APB MONITOR is monitoring
# ------------------------------------
# Name          Type       Size  Value
# ------------------------------------
# APB_trans     APB_trans  -     @1444
#   psel        integral   1     'h1  
#   penable     integral   1     'h0  
#   pwrite      integral   1     'h1  
#   preset      integral   1     'h1  
#   paddr       integral   8     255  
#   pwdata_in   integral   8     'd121
#   prdata_out  integral   8     'd0  
#   pwdata_out  integral   8     'd0  
#   pready      integral   1     'h0  
# ------------------------------------
# UVM_INFO ../ENV/Bridge_assertion.sv(67) @ 1290: reporter [ASR VAL_PSEL PASS] VALID PSEL CHECK PASSED
# UVM_INFO ../ENV/Bridge_assertion.sv(79) @ 1290: reporter [ASR VAL_RDY PASS] VALID PREADY CHECK PASSED
# UVM_INFO ../ENV/Bridge_assertion.sv(75) @ 1290: reporter [ASR VAL_ADDR PASS] VALID PADDR CHECK PASSED
# UVM_INFO ../ENV/Bridge_assertion.sv(71) @ 1308: reporter [ASR VAL_SDA PASS] VALID SDA CHECK PASSED
# UVM_INFO ../ENV/APB/APB_monitor.sv(34) @ 1310: uvm_test_top.env_h.apb_agnt_h.mon_h [APB MON] APB MONITOR is monitoring
# ------------------------------------
# Name          Type       Size  Value
# ------------------------------------
# APB_trans     APB_trans  -     @1448
#   psel        integral   1     'h1  
#   penable     integral   1     'h0  
#   pwrite      integral   1     'h1  
#   preset      integral   1     'h1  
#   paddr       integral   8     255  
#   pwdata_in   integral   8     'd121
#   prdata_out  integral   8     'd0  
#   pwdata_out  integral   8     'd0  
#   pready      integral   1     'h0  
# ------------------------------------
# UVM_INFO ../ENV/Bridge_assertion.sv(67) @ 1310: reporter [ASR VAL_PSEL PASS] VALID PSEL CHECK PASSED
# UVM_INFO ../ENV/Bridge_assertion.sv(79) @ 1310: reporter [ASR VAL_RDY PASS] VALID PREADY CHECK PASSED
# UVM_INFO ../ENV/Bridge_assertion.sv(75) @ 1310: reporter [ASR VAL_ADDR PASS] VALID PADDR CHECK PASSED
# UVM_INFO ../ENV/Bridge_assertion.sv(71) @ 1328: reporter [ASR VAL_SDA PASS] VALID SDA CHECK PASSED
# UVM_INFO ../ENV/APB/APB_monitor.sv(34) @ 1330: uvm_test_top.env_h.apb_agnt_h.mon_h [APB MON] APB MONITOR is monitoring
# ------------------------------------
# Name          Type       Size  Value
# ------------------------------------
# APB_trans     APB_trans  -     @1452
#   psel        integral   1     'h1  
#   penable     integral   1     'h0  
#   pwrite      integral   1     'h1  
#   preset      integral   1     'h1  
#   paddr       integral   8     255  
